(1589340255.782986) can1 08FE6E0B#FFFEFFFEFFFEFFFE
(1589340255.802985) can1 08FE6E0B#FFFEFFFEFFFEFFFE
(1589340255.803546) can1 18F0010B#C0FF33FFFF500B3F
(1589340255.804136) can1 18FEBF0B#FFFEFFFFFFFFFFFF
(1589340255.822985) can1 08FE6E0B#FFFEFFFEFFFEFFFE
(1589340255.842986) can1 08FE6E0B#FFFEFFFEFFFEFFFE
(1589340255.852345) can1 18FECA25#04F35A2A0201FFFF
(1589340255.852935) can1 00F18F25#00FEFEFFFFFFFBFF
(1589340255.853465) can1 00D4258B#06050E32E3073FCC
(1589340255.854025) can1 00D48B25#06050E32E3073FCC
(1589340255.855905) can1 18FECA8B#00FF00000000FFFF
(1589340255.856815) can1 00F18F0B#00FEFEFFFFFFFBFF
(1589340255.862985) can1 08FE6E0B#FFFEFFFEFFFEFFFE
(1589340255.883006) can1 08FE6E0B#FFFEFFFEFFFEFFFE
(1589340255.902966) can1 08FE6E0B#FFFEFFFEFFFEFFFE
(1589340255.903525) can1 18F0010B#C0FF33FFFF500B3F
(1589340255.904125) can1 18FEBF0B#FFFEFFFFFFFFFFFF
(1589340255.922985) can1 08FE6E0B#FFFEFFFEFFFEFFFE
(1589340255.943011) can1 08FE6E0B#FFFEFFFEFFFEFFFE
(1589340255.945785) can1 18ECFF0B#20220005FFCAFE00
(1589340255.963012) can1 08FE6E0B#FFFEFFFEFFFEFFFE
(1589340255.982986) can1 08FE6E0B#FFFEFFFEFFFEFFFE
(1589340255.995465) can1 18EBFF0B#0104FF2B030D7E15
(1589340256.002985) can1 08FE6E0B#FFFEFFFEFFFEFFFE
(1589340256.003905) can1 18F0010B#C0FF33FFFF500B3F
(1589340256.004744) can1 18FEBF0B#FFFEFFFFFFFFFFFF
(1589340256.022985) can1 08FE6E0B#FFFEFFFEFFFEFFFE
(1589340256.042986) can1 08FE6E0B#FFFEFFFEFFFEFFFE
(1589340256.045465) can1 18EBFF0B#0203027E1603027E
(1589340256.062985) can1 08FE6E0B#FFFEFFFEFFFEFFFE
(1589340256.082991) can1 08FE6E0B#FFFEFFFEFFFEFFFE
(1589340256.095446) can1 18EBFF0B#031703027E180302
(1589340256.102965) can1 08FE6E0B#FFFEFFFEFFFEFFFE
(1589340256.103645) can1 18F0010B#C0FF33FFFF500B3F
(1589340256.104486) can1 18FEBF0B#FFFEFFFFFFFFFFFF
(1589340256.122994) can1 08FE6E0B#FFFEFFFEFFFEFFFE
(1589340256.142987) can1 08FE6E0B#FFFEFFFEFFFEFFFE
(1589340256.145497) can1 18EBFF0B#047E2203047E7F02
(1589340256.163017) can1 08FE6E0B#FFFEFFFEFFFEFFFE
(1589340256.183000) can1 08FE6E0B#FFFEFFFEFFFEFFFE
(1589340256.195477) can1 18EBFF0B#05057E15040700FF
(1589340256.203005) can1 08FE6E0B#FFFEFFFEFFFEFFFE
(1589340256.203836) can1 18F0010B#C0FF33FFFF500B3F
(1589340256.204674) can1 18FEBF0B#FFFEFFFFFFFFFFFF
(1589340256.209565) can1 18EA25F9#DAFE00
(1589340256.222995) can1 08FE6E0B#FFFEFFFEFFFEFFFE
(1589340256.243011) can1 08FE6E0B#FFFEFFFEFFFEFFFE
(1589340256.262985) can1 08FE6E0B#FFFEFFFEFFFEFFFE
(1589340256.283011) can1 08FE6E0B#FFFEFFFEFFFEFFFE
(1589340256.302985) can1 08FE6E0B#FFFEFFFEFFFEFFFE
(1589340256.303935) can1 18F0010B#C0FF33FFFF500B3F
(1589340256.304785) can1 18FEBF0B#FFFEFFFFFFFFFFFF
(1589340256.323025) can1 08FE6E0B#FFFEFFFEFFFEFFFE
(1589340256.342996) can1 08FE6E0B#FFFEFFFEFFFEFFFE
(1589340256.362986) can1 08FE6E0B#FFFEFFFEFFFEFFFE
(1589340256.382987) can1 08FE6E0B#FFFEFFFEFFFEFFFE
(1589340256.403031) can1 08FE6E0B#FFFEFFFEFFFEFFFE
(1589340256.403555) can1 18F0010B#C0FF33FFFF500B3F
(1589340256.404155) can1 18FEBF0B#FFFEFFFFFFFFFFFF
(1589340256.422981) can1 08FE6E0B#FFFEFFFEFFFEFFFE
(1589340256.442997) can1 08FE6E0B#FFFEFFFEFFFEFFFE
(1589340256.463025) can1 08FE6E0B#FFFEFFFEFFFEFFFE
(1589340256.482986) can1 08FE6E0B#FFFEFFFEFFFEFFFE
(1589340256.502986) can1 08FE6E0B#FFFEFFFEFFFEFFFE
(1589340256.503545) can1 18F0010B#C0FF33FFFF500B3F
(1589340256.504144) can1 18FEBF0B#FFFEFFFFFFFFFFFF
(1589340256.522985) can1 08FE6E0B#FFFEFFFEFFFEFFFE
(1589340256.542986) can1 08FE6E0B#FFFEFFFEFFFEFFFE
(1589340256.563012) can1 08FE6E0B#FFFEFFFEFFFEFFFE
(1589340256.583021) can1 08FE6E0B#FFFEFFFEFFFEFFFE
(1589340256.599572) can1 18EA00F9#DAFE00
(1589340256.603067) can1 08FE6E0B#FFFEFFFEFFFEFFFE
(1589340256.603975) can1 18F0010B#C0FF33FFFF500B3F
(1589340256.604785) can1 18FEBF0B#FFFEFFFFFFFFFFFF
(1589340256.622985) can1 08FE6E0B#FFFEFFFEFFFEFFFE
(1589340256.642987) can1 08FE6E0B#FFFEFFFEFFFEFFFE
(1589340256.657586) can1 00D42580#06059A99A42F5C77
(1589340256.658424) can1 00D4258F#060537BBBBCFB365
(1589340256.659976) can1 00FECA8F#04F3AB04090CFFFF
(1589340256.660657) can1 00F18F00#0300FFF1FE0000FF
(1589340256.663143) can1 08FE6E0B#FFFEFFFEFFFEFFFE
(1589340256.682986) can1 08FE6E0B#FFFEFFFEFFFEFFFE
(1589340256.702985) can1 08FE6E0B#FFFEFFFEFFFEFFFE
(1589340256.703656) can1 18F0010B#C0FF33FFFF500B3F
(1589340256.704505) can1 18FEBF0B#FFFEFFFFFFFFFFFF
(1589340256.722985) can1 08FE6E0B#FFFEFFFEFFFEFFFE
(1589340256.742986) can1 08FE6E0B#FFFEFFFEFFFEFFFE
(1589340256.763005) can1 08FE6E0B#FFFEFFFEFFFEFFFE
(1589340256.783011) can1 08FE6E0B#FFFEFFFEFFFEFFFE
(1589340256.802985) can1 08FE6E0B#FFFEFFFEFFFEFFFE
(1589340256.803545) can1 18F0010B#C0FF33FFFF500B3F
(1589340256.804145) can1 18FEBF0B#FFFEFFFFFFFFFFFF
(1589340256.823015) can1 08FE6E0B#FFFEFFFEFFFEFFFE
(1589340256.842987) can1 08FE6E0B#FFFEFFFEFFFEFFFE
(1589340256.852345) can1 18FECA25#04F35A2A0201FFFF
(1589340256.852936) can1 00F18F25#00FEFEFFFFFFFBFF
(1589340256.853465) can1 00D4258B#0605E42D0A247A8A
(1589340256.854016) can1 00D48B25#0605E42D0A247A8A
(1589340256.855905) can1 18FECA8B#00FF00000000FFFF
(1589340256.856785) can1 00F18F0B#00FEFEFFFFFFFBFF
(1589340256.863014) can1 08FE6E0B#FFFEFFFEFFFEFFFE
(1589340256.883015) can1 08FE6E0B#FFFEFFFEFFFEFFFE
(1589340256.903015) can1 08FE6E0B#FFFEFFFEFFFEFFFE
(1589340256.903576) can1 18F0010B#C0FF33FFFF500B3F
(1589340256.904144) can1 18FEBF0B#FFFEFFFFFFFFFFFF
(1589340256.922986) can1 08FE6E0B#FFFEFFFEFFFEFFFE
(1589340256.943011) can1 08FE6E0B#FFFEFFFEFFFEFFFE
(1589340256.945785) can1 18ECFF0B#20220005FFCAFE00
(1589340256.963018) can1 08FE6E0B#FFFEFFFEFFFEFFFE
(1589340256.983026) can1 08FE6E0B#FFFEFFFEFFFEFFFE
(1589340256.995466) can1 18EBFF0B#0104FF2B030D7E15
(1589340257.002575) can1 18EAFFF9#DAFE00
(1589340257.003145) can1 08FE6E0B#FFFEFFFEFFFEFFFE
(1589340257.003865) can1 18F0010B#C0FF33FFFF500B3F
(1589340257.004545) can1 18FEBF0B#FFFEFFFFFFFFFFFF
(1589340257.023012) can1 08FE6E0B#FFFEFFFEFFFEFFFE
(1589340257.043011) can1 08FE6E0B#FFFEFFFEFFFEFFFE
(1589340257.045505) can1 18EBFF0B#0203027E1603027E
(1589340257.063025) can1 08FE6E0B#FFFEFFFEFFFEFFFE
(1589340257.083026) can1 08FE6E0B#FFFEFFFEFFFEFFFE
(1589340257.095496) can1 18EBFF0B#031703027E180302
(1589340257.102986) can1 08FE6E0B#FFFEFFFEFFFEFFFE
(1589340257.103547) can1 18F0010B#C0FF33FFFF500B3F
(1589340257.104145) can1 18FEBF0B#FFFEFFFFFFFFFFFF
(1589340257.123015) can1 08FE6E0B#FFFEFFFEFFFEFFFE
(1589340257.143066) can1 08FE6E0B#FFFEFFFEFFFEFFFE
(1589340257.145505) can1 18EBFF0B#047E2203047E7F02
(1589340257.163017) can1 08FE6E0B#FFFEFFFEFFFEFFFE
(1589340257.183012) can1 08FE6E0B#FFFEFFFEFFFEFFFE
(1589340257.195496) can1 18EBFF0B#05057E15040700FF
(1589340257.196065) can1 18ECFF0B#206C0010FFDAFE00
(1589340257.203025) can1 08FE6E0B#FFFEFFFEFFFEFFFE
(1589340257.203867) can1 18F0010B#C0FF33FFFF500B3F
(1589340257.204734) can1 18FEBF0B#FFFEFFFFFFFFFFFF
(1589340257.223001) can1 08FE6E0B#FFFEFFFEFFFEFFFE
(1589340257.243006) can1 08FE6E0B#FFFEFFFEFFFEFFFE
(1589340257.245485) can1 18EBFF0B#0107414141493030
(1589340257.263025) can1 08FE6E0B#FFFEFFFEFFFEFFFE
(1589340257.283027) can1 08FE6E0B#FFFEFFFEFFFEFFFE
(1589340257.295505) can1 18EBFF0B#02303033322A4141
(1589340257.303019) can1 08FE6E0B#FFFEFFFEFFFEFFFE
(1589340257.303577) can1 18F0010B#C0FF33FFFF500B3F
(1589340257.304185) can1 18FEBF0B#FFFEFFFFFFFFFFFF
(1589340257.323015) can1 08FE6E0B#FFFEFFFEFFFEFFFE
(1589340257.343015) can1 08FE6E0B#FFFEFFFEFFFEFFFE
(1589340257.345505) can1 18EBFF0B#03414D3030303033
(1589340257.363056) can1 08FE6E0B#FFFEFFFEFFFEFFFE
(1589340257.374826) can1 18EA80F9#DAFE00
(1589340257.383105) can1 08FE6E0B#FFFEFFFEFFFEFFFE
(1589340257.395465) can1 18EBFF0B#04382A4242343132
(1589340257.403053) can1 08FE6E0B#FFFEFFFEFFFEFFFE
(1589340257.403585) can1 18F0010B#C0FF33FFFF500B3F
(1589340257.404176) can1 18FEBF0B#FFFEFFFFFFFFFFFF
(1589340257.423025) can1 08FE6E0B#FFFEFFFEFFFEFFFE
(1589340257.443051) can1 08FE6E0B#FFFEFFFEFFFEFFFE
(1589340257.445505) can1 18EBFF0B#0537340000002A41
(1589340257.463024) can1 08FE6E0B#FFFEFFFEFFFEFFFE
(1589340257.483017) can1 08FE6E0B#FFFEFFFEFFFEFFFE
(1589340257.495465) can1 18EBFF0B#0638324A31343037
(1589340257.503025) can1 08FE6E0B#FFFEFFFEFFFEFFFE
(1589340257.503585) can1 18F0010B#C0FF33FFFF500B3F
(1589340257.504175) can1 18FEBF0B#FFFEFFFFFFFFFFFF
(1589340257.523025) can1 08FE6E0B#FFFEFFFEFFFEFFFE
(1589340257.543019) can1 08FE6E0B#FFFEFFFEFFFEFFFE
(1589340257.545465) can1 18EBFF0B#073231415F393130
(1589340257.563024) can1 08FE6E0B#FFFEFFFEFFFEFFFE
(1589340257.583026) can1 08FE6E0B#FFFEFFFEFFFEFFFE
(1589340257.595511) can1 18EBFF0B#0834564154430000
(1589340257.603004) can1 08FE6E0B#FFFEFFFEFFFEFFFE
(1589340257.603725) can1 18F0010B#C0FF33FFFF500B3F
(1589340257.604565) can1 18FEBF0B#FFFEFFFFFFFFFFFF
(1589340257.623035) can1 08FE6E0B#FFFEFFFEFFFEFFFE
(1589340257.643058) can1 08FE6E0B#FFFEFFFEFFFEFFFE
(1589340257.645506) can1 18EBFF0B#0900002A41414143
(1589340257.657578) can1 00D42580#060597C94A6EBAE4
(1589340257.658493) can1 00D4258F#060541181B2C2436
(1589340257.659943) can1 00FECA8F#04F3AB04090CFFFF
(1589340257.660663) can1 00F18F00#0300FFF1FE0000FF
(1589340257.663097) can1 08FE6E0B#FFFEFFFEFFFEFFFE
(1589340257.681786) can1 18EA0BF9#DAFE00
(1589340257.683456) can1 08FE6E0B#FFFEFFFEFFFEFFFE
(1589340257.695506) can1 18EBFF0B#0A3030303033332A
(1589340257.696065) can1 18ECF90B#106C0010FFDAFE00
(1589340257.703026) can1 08FE6E0B#FFFEFFFEFFFEFFFE
(1589340257.703586) can1 18F0010B#C0FF33FFFF500B3F
(1589340257.704182) can1 18FEBF0B#FFFEFFFFFFFFFFFF
(1589340257.723025) can1 08FE6E0B#FFFEFFFEFFFEFFFE
(1589340257.743040) can1 08FE6E0B#FFFEFFFEFFFEFFFE
(1589340257.745473) can1 18EBFF0B#0B42423431323736
(1589340257.763057) can1 08FE6E0B#FFFEFFFEFFFEFFFE
(1589340257.783026) can1 08FE6E0B#FFFEFFFEFFFEFFFE
(1589340257.795537) can1 18EBFF0B#0C00000000002A41
(1589340257.803025) can1 08FE6E0B#FFFEFFFEFFFEFFFE
(1589340257.803611) can1 18F0010B#C0FF33FFFF500B3F
(1589340257.804175) can1 18FEBF0B#FFFEFFFFFFFFFFFF
(1589340257.823051) can1 08FE6E0B#FFFEFFFEFFFEFFFE
(1589340257.843053) can1 08FE6E0B#FFFEFFFEFFFEFFFE
(1589340257.845497) can1 18EBFF0B#0D38584C31343036
(1589340257.852345) can1 18FECA25#04F35A2A0201FFFF
(1589340257.852936) can1 00F18F25#00FEFEFFFFFFFBFF
(1589340257.853465) can1 00D4258B#0605A20C9275D196
(1589340257.854056) can1 00D48B25#0605A20C9275D196
(1589340257.855905) can1 18FECA8B#00FF00000000FFFF
(1589340257.856825) can1 00F18F0B#00FEFEFFFFFFFBFF
(1589340257.863064) can1 08FE6E0B#FFFEFFFEFFFEFFFE
(1589340257.883025) can1 08FE6E0B#FFFEFFFEFFFEFFFE
(1589340257.895466) can1 18EBFF0B#0E3036425F455350
(1589340257.903025) can1 08FE6E0B#FFFEFFFEFFFEFFFE
(1589340257.903585) can1 18F0010B#C0FF33FFFF500B3F
(1589340257.904184) can1 18FEBF0B#FFFEFFFFFFFFFFFF
(1589340257.923025) can1 08FE6E0B#FFFEFFFEFFFEFFFE
(1589340257.943061) can1 08FE6E0B#FFFEFFFEFFFEFFFE
(1589340257.945505) can1 18EBFF0B#0F5F6F6666000000
(1589340257.963025) can1 08FE6E0B#FFFEFFFEFFFEFFFE
(1589340257.983027) can1 08FE6E0B#FFFEFFFEFFFEFFFE
(1589340257.992976) can1 18EA8BF9#DAFE00
(1589340257.995545) can1 18EBFF0B#1000002AFFFFFFFF
(1589340257.996135) can1 18ECFF0B#201E0005FFCAFE00
(1589340258.003026) can1 08FE6E0B#FFFEFFFEFFFEFFFE
(1589340258.003586) can1 18F0010B#C0FF33FFFF500B3F
(1589340258.004185) can1 18FEBF0B#FFFEFFFFFFFFFFFF
(1589340258.023025) can1 08FE6E0B#FFFEFFFEFFFEFFFE
(1589340258.043056) can1 08FE6E0B#FFFEFFFEFFFEFFFE
(1589340258.045505) can1 18EBFF0B#0104FF2B030D7E15
(1589340258.063062) can1 08FE6E0B#FFFEFFFEFFFEFFFE
(1589340258.083058) can1 08FE6E0B#FFFEFFFEFFFEFFFE
(1589340258.095507) can1 18EBFF0B#0203027E1603027E
(1589340258.103056) can1 08FE6E0B#FFFEFFFEFFFEFFFE
(1589340258.103785) can1 18F0010B#C0FF33FFFF500B3F
(1589340258.104665) can1 18FEBF0B#FFFEFFFFFFFFFFFF
(1589340258.123054) can1 08FE6E0B#FFFEFFFEFFFEFFFE
(1589340258.143215) can1 08FE6E0B#FFFEFFFEFFFEFFFE
(1589340258.145498) can1 18EBFF0B#031703027E180302
(1589340258.163057) can1 08FE6E0B#FFFEFFFEFFFEFFFE
(1589340258.183046) can1 08FE6E0B#FFFEFFFEFFFEFFFE
(1589340258.195516) can1 18EBFF0B#047E2203047E1504
(1589340258.203058) can1 08FE6E0B#FFFEFFFEFFFEFFFE
(1589340258.203616) can1 18F0010B#C0FF33FFFF500B3F
(1589340258.204185) can1 18FEBF0B#FFFEFFFFFFFFFFFF
(1589340258.223065) can1 08FE6E0B#FFFEFFFEFFFEFFFE
(1589340258.243057) can1 08FE6E0B#FFFEFFFEFFFEFFFE
(1589340258.245546) can1 18EBFF0B#050700FFFFFFFFFF
(1589340258.263065) can1 08FE6E0B#FFFEFFFEFFFEFFFE
(1589340258.283055) can1 08FE6E0B#FFFEFFFEFFFEFFFE
(1589340258.303057) can1 08FE6E0B#FFFEFFFEFFFEFFFE
(1589340258.303615) can1 18F0010B#C0FF33FFFF500B3F
(1589340258.304185) can1 18FEBF0B#FFFEFFFFFFFFFFFF
(1589340258.323065) can1 08FE6E0B#FFFEFFFEFFFEFFFE
(1589340258.343066) can1 08FE6E0B#FFFEFFFEFFFEFFFE
(1589340258.363093) can1 08FE6E0B#FFFEFFFEFFFEFFFE
(1589340258.383058) can1 08FE6E0B#FFFEFFFEFFFEFFFE
(1589340258.403057) can1 08FE6E0B#FFFEFFFEFFFEFFFE
(1589340258.403905) can1 18F0010B#C0FF33FFFF500B3F
(1589340258.404745) can1 18FEBF0B#FFFEFFFFFFFFFFFF
(1589340258.423065) can1 08FE6E0B#FFFEFFFEFFFEFFFE
(1589340258.443093) can1 08FE6E0B#FFFEFFFEFFFEFFFE
(1589340258.459213) can1 18EA8FF9#DAFE00
(1589340258.463064) can1 08FE6E0B#FFFEFFFEFFFEFFFE
(1589340258.483058) can1 08FE6E0B#FFFEFFFEFFFEFFFE
(1589340258.503056) can1 08FE6E0B#FFFEFFFEFFFEFFFE
(1589340258.503626) can1 18F0010B#C0FF33FFFF500B3F
(1589340258.504214) can1 18FEBF0B#FFFEFFFFFFFFFFFF
(1589340258.523066) can1 08FE6E0B#FFFEFFFEFFFEFFFE
(1589340258.543066) can1 08FE6E0B#FFFEFFFEFFFEFFFE
(1589340258.563091) can1 08FE6E0B#FFFEFFFEFFFEFFFE
(1589340258.583072) can1 08FE6E0B#FFFEFFFEFFFEFFFE
(1589340258.603092) can1 08FE6E0B#FFFEFFFEFFFEFFFE
(1589340258.603785) can1 18F0010B#C0FF33FFFF500B3F
(1589340258.604656) can1 18FEBF0B#FFFEFFFFFFFFFFFF
(1589340258.623142) can1 08FE6E0B#FFFEFFFEFFFEFFFE
(1589340258.643104) can1 08FE6E0B#FFFEFFFEFFFEFFFE
(1589340258.657654) can1 00D42580#060524734F65303B
(1589340258.658466) can1 00D4258F#06057AE09C816461
(1589340258.659973) can1 00FECA8F#04F3AB04090CFFFF
(1589340258.660662) can1 00F18F00#0300FFF1FE0000FF
(1589340258.663133) can1 08FE6E0B#FFFEFFFEFFFEFFFE
(1589340258.683066) can1 08FE6E0B#FFFEFFFEFFFEFFFE
(1589340258.703065) can1 08FE6E0B#FFFEFFFEFFFEFFFE
(1589340258.703985) can1 18F0010B#C0FF33FFFF500B3F
(1589340258.704865) can1 18FEBF0B#FFFEFFFFFFFFFFFF
(1589340258.723092) can1 08FE6E0B#FFFEFFFEFFFEFFFE
(1589340258.743093) can1 08FE6E0B#FFFEFFFEFFFEFFFE
(1589340258.763092) can1 08FE6E0B#FFFEFFFEFFFEFFFE
(1589340258.783073) can1 08FE6E0B#FFFEFFFEFFFEFFFE
(1589340258.802226) can1 18EA25F9#DAFE00
(1589340258.803065) can1 08FE6E0B#FFFEFFFEFFFEFFFE
(1589340258.803982) can1 18F0010B#C0FF33FFFF500B3F
(1589340258.804586) can1 18FEBF0B#FFFEFFFFFFFFFFFF
(1589340258.823065) can1 08FE6E0B#FFFEFFFEFFFEFFFE
(1589340258.843093) can1 08FE6E0B#FFFEFFFEFFFEFFFE
(1589340258.852456) can1 18FECA25#04F35A2A0201FFFF
(1589340258.852946) can1 00F18F25#00FEFEFFFFFFFBFF
(1589340258.853495) can1 00D4258B#06059E0814A9DE83
(1589340258.854055) can1 00D48B25#06059E0814A9DE83
(1589340258.855905) can1 18FECA8B#00FF00000000FFFF
(1589340258.856785) can1 00F18F0B#00FEFEFFFFFFFBFF
(1589340258.863083) can1 08FE6E0B#FFFEFFFEFFFEFFFE
(1589340258.883112) can1 08FE6E0B#FFFEFFFEFFFEFFFE
(1589340258.903097) can1 08FE6E0B#FFFEFFFEFFFEFFFE
(1589340258.903631) can1 18F0010B#C0FF33FFFF500B3F
(1589340258.904206) can1 18FEBF0B#FFFEFFFFFFFFFFFF
(1589340258.923046) can1 08FE6E0B#FFFEFFFEFFFEFFFE
(1589340258.943073) can1 08FE6E0B#FFFEFFFEFFFEFFFE
(1589340258.963092) can1 08FE6E0B#FFFEFFFEFFFEFFFE
(1589340258.983095) can1 08FE6E0B#FFFEFFFEFFFEFFFE
(1589340258.995816) can1 18ECFF0B#201E0005FFCAFE00
(1589340258.996385) can1 18ECF90B#FF03FFFFFFDAFE00
(1589340259.003066) can1 08FE6E0B#FFFEFFFEFFFEFFFE
(1589340259.003775) can1 18F0010B#C0FF33FFFF500B3F
(1589340259.004615) can1 18FEBF0B#FFFEFFFFFFFFFFFF
(1589340259.023095) can1 08FE6E0B#FFFEFFFEFFFEFFFE
(1589340259.043066) can1 08FE6E0B#FFFEFFFEFFFEFFFE
(1589340259.045536) can1 18EBFF0B#0104FF2B030D7E15
(1589340259.063098) can1 08FE6E0B#FFFEFFFEFFFEFFFE
(1589340259.083099) can1 08FE6E0B#FFFEFFFEFFFEFFFE
(1589340259.095537) can1 18EBFF0B#0203027E1603027E
(1589340259.103066) can1 08FE6E0B#FFFEFFFEFFFEFFFE
(1589340259.103655) can1 18F0010B#C0FF33FFFF500B3F
(1589340259.104225) can1 18FEBF0B#FFFEFFFFFFFFFFFF
(1589340259.123092) can1 08FE6E0B#FFFEFFFEFFFEFFFE
(1589340259.143116) can1 08FE6E0B#FFFEFFFEFFFEFFFE
(1589340259.145533) can1 18EBFF0B#031703027E180302
(1589340259.163066) can1 08FE6E0B#FFFEFFFEFFFEFFFE
(1589340259.183107) can1 08FE6E0B#FFFEFFFEFFFEFFFE
(1589340259.192571) can1 18EAFFF9#DAFE00
(1589340259.195546) can1 18EBFF0B#047E2203047E1504
(1589340259.203096) can1 08FE6E0B#FFFEFFFEFFFEFFFE
(1589340259.203743) can1 18F0010B#C0FF33FFFF500B3F
(1589340259.204583) can1 18FEBF0B#FFFEFFFFFFFFFFFF
(1589340259.223098) can1 08FE6E0B#FFFEFFFEFFFEFFFE
(1589340259.243093) can1 08FE6E0B#FFFEFFFEFFFEFFFE
(1589340259.245547) can1 18EBFF0B#050700FFFFFFFFFF
(1589340259.246137) can1 18ECFF0B#206C0010FFDAFE00
(1589340259.263064) can1 08FE6E0B#FFFEFFFEFFFEFFFE
(1589340259.283067) can1 08FE6E0B#FFFEFFFEFFFEFFFE
(1589340259.295535) can1 18EBFF0B#0107414141493030
(1589340259.303065) can1 08FE6E0B#FFFEFFFEFFFEFFFE
(1589340259.303985) can1 18F0010B#C0FF33FFFF500B3F
(1589340259.304824) can1 18FEBF0B#FFFEFFFFFFFFFFFF
(1589340259.323066) can1 08FE6E0B#FFFEFFFEFFFEFFFE
(1589340259.343094) can1 08FE6E0B#FFFEFFFEFFFEFFFE
(1589340259.345506) can1 18EBFF0B#02303033322A4141
(1589340259.363064) can1 08FE6E0B#FFFEFFFEFFFEFFFE
(1589340259.383066) can1 08FE6E0B#FFFEFFFEFFFEFFFE
(1589340259.395537) can1 18EBFF0B#03414D3030303033
(1589340259.403066) can1 08FE6E0B#FFFEFFFEFFFEFFFE
(1589340259.403625) can1 18F0010B#C0FF33FFFF500B3F
(1589340259.404225) can1 18FEBF0B#FFFEFFFFFFFFFFFF
(1589340259.423086) can1 08FE6E0B#FFFEFFFEFFFEFFFE
(1589340259.443092) can1 08FE6E0B#FFFEFFFEFFFEFFFE
(1589340259.445497) can1 18EBFF0B#04382A4242343132
(1589340259.463067) can1 08FE6E0B#FFFEFFFEFFFEFFFE
(1589340259.483092) can1 08FE6E0B#FFFEFFFEFFFEFFFE
(1589340259.495546) can1 18EBFF0B#0537340000002A41
(1589340259.503065) can1 08FE6E0B#FFFEFFFEFFFEFFFE
(1589340259.503625) can1 18F0010B#C0FF33FFFF500B3F
(1589340259.504226) can1 18FEBF0B#FFFEFFFFFFFFFFFF
(1589340259.523096) can1 08FE6E0B#FFFEFFFEFFFEFFFE
(1589340259.543097) can1 08FE6E0B#FFFEFFFEFFFEFFFE
(1589340259.545506) can1 18EBFF0B#0638324A31343037
(1589340259.563094) can1 08FE6E0B#FFFEFFFEFFFEFFFE
(1589340259.583100) can1 08FE6E0B#FFFEFFFEFFFEFFFE
(1589340259.595533) can1 18EBFF0B#073231415F393130
(1589340259.599706) can1 18EA80F9#DAFE00
(1589340259.603106) can1 08FE6E0B#FFFEFFFEFFFEFFFE
(1589340259.603985) can1 18F0010B#C0FF33FFFF500B3F
(1589340259.604856) can1 18FEBF0B#FFFEFFFFFFFFFFFF
(1589340259.623096) can1 08FE6E0B#FFFEFFFEFFFEFFFE
(1589340259.643091) can1 08FE6E0B#FFFEFFFEFFFEFFFE
(1589340259.645545) can1 18EBFF0B#0834564154430000
(1589340259.657623) can1 00D42580#06051DBC3B41A034
(1589340259.658465) can1 00D4258F#0605EE5539BF31AB
(1589340259.659963) can1 00FECA8F#04F3AB04090CFFFF
(1589340259.660673) can1 00F18F00#0300FFF1FE0000FF
(1589340259.663143) can1 08FE6E0B#FFFEFFFEFFFEFFFE
(1589340259.683100) can1 08FE6E0B#FFFEFFFEFFFEFFFE
(1589340259.695571) can1 18EBFF0B#0900002A41414143
(1589340259.703096) can1 08FE6E0B#FFFEFFFEFFFEFFFE
(1589340259.703665) can1 18F0010B#C0FF33FFFF500B3F
(1589340259.704254) can1 18FEBF0B#FFFEFFFFFFFFFFFF
(1589340259.723066) can1 08FE6E0B#FFFEFFFEFFFEFFFE
(1589340259.743093) can1 08FE6E0B#FFFEFFFEFFFEFFFE
(1589340259.745537) can1 18EBFF0B#0A3030303033332A
(1589340259.763100) can1 08FE6E0B#FFFEFFFEFFFEFFFE
(1589340259.783098) can1 08FE6E0B#FFFEFFFEFFFEFFFE
(1589340259.795496) can1 18EBFF0B#0B42423431323736
(1589340259.803097) can1 08FE6E0B#FFFEFFFEFFFEFFFE
(1589340259.803656) can1 18F0010B#C0FF33FFFF500B3F
(1589340259.804225) can1 18FEBF0B#FFFEFFFFFFFFFFFF
(1589340259.823095) can1 08FE6E0B#FFFEFFFEFFFEFFFE
(1589340259.843097) can1 08FE6E0B#FFFEFFFEFFFEFFFE
(1589340259.845575) can1 18EBFF0B#0C00000000002A41
(1589340259.852403) can1 18FECA25#04F35A2A0201FFFF
(1589340259.852938) can1 00F18F25#00FEFEFFFFFFFBFF
(1589340259.853466) can1 00D4258B#0605A85163F57F96
(1589340259.854025) can1 00D48B25#0605A85163F57F96
(1589340259.855935) can1 18FECA8B#00FF00000000FFFF
(1589340259.856816) can1 00F18F0B#00FEFEFFFFFFFBFF
(1589340259.863101) can1 08FE6E0B#FFFEFFFEFFFEFFFE
(1589340259.883096) can1 08FE6E0B#FFFEFFFEFFFEFFFE
(1589340259.895506) can1 18EBFF0B#0D38584C31343036
(1589340259.903105) can1 08FE6E0B#FFFEFFFEFFFEFFFE
(1589340259.904025) can1 18F0010B#C0FF33FFFF500B3F
(1589340259.904905) can1 18FEBF0B#FFFEFFFFFFFFFFFF
(1589340259.923066) can1 08FE6E0B#FFFEFFFEFFFEFFFE
(1589340259.943097) can1 08FE6E0B#FFFEFFFEFFFEFFFE
(1589340259.945506) can1 18EBFF0B#0E3036425F455350
(1589340259.963104) can1 08FE6E0B#FFFEFFFEFFFEFFFE
(1589340259.974786) can1 18EA00F9#DAFE00
(1589340259.983097) can1 08FE6E0B#FFFEFFFEFFFEFFFE
(1589340259.995545) can1 18EBFF0B#0F5F6F6666000000
(1589340260.003096) can1 08FE6E0B#FFFEFFFEFFFEFFFE
(1589340260.003655) can1 18F0010B#C0FF33FFFF500B3F
(1589340260.004225) can1 18FEBF0B#FFFEFFFFFFFFFFFF
(1589340260.023106) can1 08FE6E0B#FFFEFFFEFFFEFFFE
(1589340260.043097) can1 08FE6E0B#FFFEFFFEFFFEFFFE
(1589340260.045585) can1 18EBFF0B#1000002AFFFFFFFF
(1589340260.046176) can1 18ECFF0B#201E0005FFCAFE00
(1589340260.063098) can1 08FE6E0B#FFFEFFFEFFFEFFFE
(1589340260.083135) can1 08FE6E0B#FFFEFFFEFFFEFFFE
(1589340260.095571) can1 18EBFF0B#0104FF2B030D7E15
(1589340260.103097) can1 08FE6E0B#FFFEFFFEFFFEFFFE
(1589340260.103655) can1 18F0010B#C0FF33FFFF500B3F
(1589340260.104265) can1 18FEBF0B#FFFEFFFFFFFFFFFF
(1589340260.123095) can1 08FE6E0B#FFFEFFFEFFFEFFFE
(1589340260.143104) can1 08FE6E0B#FFFEFFFEFFFEFFFE
(1589340260.145576) can1 18EBFF0B#0203027E1603027E
(1589340260.163098) can1 08FE6E0B#FFFEFFFEFFFEFFFE
(1589340260.183142) can1 08FE6E0B#FFFEFFFEFFFEFFFE
(1589340260.195561) can1 18EBFF0B#031703027E180302
(1589340260.203126) can1 08FE6E0B#FFFEFFFEFFFEFFFE
(1589340260.203715) can1 18F0010B#C0FF33FFFF500B3F
(1589340260.204606) can1 18FEBF0B#FFFEFFFFFFFFFFFF
(1589340260.223085) can1 08FE6E0B#FFFEFFFEFFFEFFFE
(1589340260.243116) can1 08FE6E0B#FFFEFFFEFFFEFFFE
(1589340260.245566) can1 18EBFF0B#047E2203047E1504
(1589340260.263105) can1 08FE6E0B#FFFEFFFEFFFEFFFE
(1589340260.283137) can1 08FE6E0B#FFFEFFFEFFFEFFFE
(1589340260.292345) can1 18EA80F9#DAFE00
(1589340260.295585) can1 18EBFF0B#050700FFFFFFFFFF
(1589340260.303105) can1 08FE6E0B#FFFEFFFEFFFEFFFE
(1589340260.303905) can1 18F0010B#C0FF33FFFF500B3F
(1589340260.304774) can1 18FEBF0B#FFFEFFFFFFFFFFFF
(1589340260.323105) can1 08FE6E0B#FFFEFFFEFFFEFFFE
(1589340260.343097) can1 08FE6E0B#FFFEFFFEFFFEFFFE
(1589340260.363098) can1 08FE6E0B#FFFEFFFEFFFEFFFE
(1589340260.383107) can1 08FE6E0B#FFFEFFFEFFFEFFFE
(1589340260.403106) can1 08FE6E0B#FFFEFFFEFFFEFFFE
(1589340260.403665) can1 18F0010B#C0FF33FFFF500B3F
(1589340260.404255) can1 18FEBF0B#FFFEFFFFFFFFFFFF
(1589340260.423105) can1 08FE6E0B#FFFEFFFEFFFEFFFE
(1589340260.443132) can1 08FE6E0B#FFFEFFFEFFFEFFFE
(1589340260.463105) can1 08FE6E0B#FFFEFFFEFFFEFFFE
(1589340260.483136) can1 08FE6E0B#FFFEFFFEFFFEFFFE
(1589340260.503105) can1 08FE6E0B#FFFEFFFEFFFEFFFE
(1589340260.503665) can1 18F0010B#C0FF33FFFF500B3F
(1589340260.504265) can1 18FEBF0B#FFFEFFFFFFFFFFFF
(1589340260.523105) can1 08FE6E0B#FFFEFFFEFFFEFFFE
(1589340260.543136) can1 08FE6E0B#FFFEFFFEFFFEFFFE
(1589340260.563105) can1 08FE6E0B#FFFEFFFEFFFEFFFE
(1589340260.583105) can1 08FE6E0B#FFFEFFFEFFFEFFFE
(1589340260.603131) can1 08FE6E0B#FFFEFFFEFFFEFFFE
(1589340260.603665) can1 18F0010B#C0FF33FFFF500B3F
(1589340260.604296) can1 18FEBF0B#FFFEFFFFFFFFFFFF
(1589340260.623105) can1 08FE6E0B#FFFEFFFEFFFEFFFE
(1589340260.643118) can1 08FE6E0B#FFFEFFFEFFFEFFFE
(1589340260.657597) can1 00D42580#0605F41C99BD7D15
(1589340260.658484) can1 00D4258F#060589ADF9195D58
(1589340260.659994) can1 00FECA8F#04F3AB04090CFFFF
(1589340260.660683) can1 00F18F00#0300FFF1FE0000FF
(1589340260.663183) can1 08FE6E0B#FFFEFFFEFFFEFFFE
(1589340260.683137) can1 08FE6E0B#FFFEFFFEFFFEFFFE
(1589340260.703132) can1 08FE6E0B#FFFEFFFEFFFEFFFE
(1589340260.703772) can1 18F0010B#C0FF33FFFF500B3F
(1589340260.704653) can1 18FEBF0B#FFFEFFFFFFFFFFFF
(1589340260.723106) can1 08FE6E0B#FFFEFFFEFFFEFFFE
(1589340260.743132) can1 08FE6E0B#FFFEFFFEFFFEFFFE
(1589340260.763106) can1 08FE6E0B#FFFEFFFEFFFEFFFE
(1589340260.783106) can1 08FE6E0B#FFFEFFFEFFFEFFFE
(1589340260.803137) can1 08FE6E0B#FFFEFFFEFFFEFFFE
(1589340260.803665) can1 18F0010B#C0FF33FFFF500B3F
(1589340260.804265) can1 18FEBF0B#FFFEFFFFFFFFFFFF
(1589340260.823105) can1 08FE6E0B#FFFEFFFEFFFEFFFE
(1589340260.843139) can1 08FE6E0B#FFFEFFFEFFFEFFFE
(1589340260.852347) can1 18FECA25#04F35A2A0201FFFF
(1589340260.852946) can1 00F18F25#00FEFEFFFFFFFBFF
(1589340260.853465) can1 00D4258B#0605D3155C264B5B
(1589340260.854056) can1 00D48B25#0605D3155C264B5B
(1589340260.855905) can1 18FECA8B#00FF00000000FFFF
(1589340260.856785) can1 00F18F0B#00FEFEFFFFFFFBFF
(1589340260.863106) can1 08FE6E0B#FFFEFFFEFFFEFFFE
(1589340260.883106) can1 08FE6E0B#FFFEFFFEFFFEFFFE
(1589340260.903106) can1 08FE6E0B#FFFEFFFEFFFEFFFE
(1589340260.903665) can1 18F0010B#C0FF33FFFF500B3F
(1589340260.904265) can1 18FEBF0B#FFFEFFFFFFFFFFFF
(1589340260.923144) can1 08FE6E0B#FFFEFFFEFFFEFFFE
(1589340260.943172) can1 08FE6E0B#FFFEFFFEFFFEFFFE
(1589340260.963132) can1 08FE6E0B#FFFEFFFEFFFEFFFE
(1589340260.983107) can1 08FE6E0B#FFFEFFFEFFFEFFFE
(1589340261.003106) can1 08FE6E0B#FFFEFFFEFFFEFFFE
(1589340261.003665) can1 18F0010B#C0FF33FFFF500B3F
(1589340261.004301) can1 18FEBF0B#FFFEFFFFFFFFFFFF
(1589340261.023180) can1 08FE6E0B#FFFEFFFEFFFEFFFE
(1589340261.043139) can1 08FE6E0B#FFFEFFFEFFFEFFFE
(1589340261.045856) can1 18ECFF0B#201E0005FFCAFE00
(1589340261.063138) can1 08FE6E0B#FFFEFFFEFFFEFFFE
(1589340261.083158) can1 08FE6E0B#FFFEFFFEFFFEFFFE
(1589340261.095576) can1 18EBFF0B#0104FF2B030D7E15
(1589340261.103131) can1 08FE6E0B#FFFEFFFEFFFEFFFE
(1589340261.103975) can1 18F0010B#C0FF33FFFF500B3F
(1589340261.104816) can1 18FEBF0B#FFFEFFFFFFFFFFFF
(1589340261.123159) can1 08FE6E0B#FFFEFFFEFFFEFFFE
(1589340261.143153) can1 08FE6E0B#FFFEFFFEFFFEFFFE
(1589340261.145567) can1 18EBFF0B#0203027E1603027E
(1589340261.163105) can1 08FE6E0B#FFFEFFFEFFFEFFFE
(1589340261.183136) can1 08FE6E0B#FFFEFFFEFFFEFFFE
(1589340261.195586) can1 18EBFF0B#031703027E180302
(1589340261.203106) can1 08FE6E0B#FFFEFFFEFFFEFFFE
(1589340261.203705) can1 18F0010B#C0FF33FFFF500B3F
(1589340261.204296) can1 18FEBF0B#FFFEFFFFFFFFFFFF
(1589340261.223135) can1 08FE6E0B#FFFEFFFEFFFEFFFE
(1589340261.243106) can1 08FE6E0B#FFFEFFFEFFFEFFFE
(1589340261.245585) can1 18EBFF0B#047E2203047E1504
(1589340261.263145) can1 08FE6E0B#FFFEFFFEFFFEFFFE
(1589340261.283136) can1 08FE6E0B#FFFEFFFEFFFEFFFE
(1589340261.295615) can1 18EBFF0B#050700FFFFFFFFFF
(1589340261.303145) can1 08FE6E0B#FFFEFFFEFFFEFFFE
(1589340261.303745) can1 18F0010B#C0FF33FFFF500B3F
(1589340261.304616) can1 18FEBF0B#FFFEFFFFFFFFFFFF
(1589340261.323125) can1 08FE6E0B#FFFEFFFEFFFEFFFE
(1589340261.343123) can1 08FE6E0B#FFFEFFFEFFFEFFFE
(1589340261.363105) can1 08FE6E0B#FFFEFFFEFFFEFFFE
(1589340261.383136) can1 08FE6E0B#FFFEFFFEFFFEFFFE
(1589340261.403136) can1 08FE6E0B#FFFEFFFEFFFEFFFE
(1589340261.403896) can1 18F0010B#C0FF33FFFF500B3F
(1589340261.404745) can1 18FEBF0B#FFFEFFFFFFFFFFFF
(1589340261.423145) can1 08FE6E0B#FFFEFFFEFFFEFFFE
(1589340261.443171) can1 08FE6E0B#FFFEFFFEFFFEFFFE
(1589340261.463146) can1 08FE6E0B#FFFEFFFEFFFEFFFE
(1589340261.483146) can1 08FE6E0B#FFFEFFFEFFFEFFFE
(1589340261.503152) can1 08FE6E0B#FFFEFFFEFFFEFFFE
(1589340261.503991) can1 18F0010B#C0FF33FFFF500B3F
(1589340261.504845) can1 18FEBF0B#FFFEFFFFFFFFFFFF
(1589340261.523138) can1 08FE6E0B#FFFEFFFEFFFEFFFE
(1589340261.543139) can1 08FE6E0B#FFFEFFFEFFFEFFFE
(1589340261.563134) can1 08FE6E0B#FFFEFFFEFFFEFFFE
(1589340261.583106) can1 08FE6E0B#FFFEFFFEFFFEFFFE
(1589340261.596225) can1 18ECFF0B#20220005FFCAFE00
(1589340261.603137) can1 08FE6E0B#FFFEFFFEFFFEFFFE
(1589340261.603696) can1 18F0010B#C0FF33FFFF500B3F
(1589340261.604265) can1 18FEBF0B#FFFEFFFFFFFFFFFF
(1589340261.623156) can1 08FE6E0B#FFFEFFFEFFFEFFFE
(1589340261.643152) can1 08FE6E0B#FFFEFFFEFFFEFFFE
(1589340261.645600) can1 18EBFF0B#0104FF2B030D7E15
(1589340261.657604) can1 00D42580#0605B26112B17DAF
(1589340261.658464) can1 00D4258F#06059C6753622C25
(1589340261.659983) can1 00FECA8F#04F3AB04090CFFFF
(1589340261.660695) can1 00F18F00#0300FFF1FE0000FF
(1589340261.663183) can1 08FE6E0B#FFFEFFFEFFFEFFFE
(1589340261.683105) can1 08FE6E0B#FFFEFFFEFFFEFFFE
(1589340261.695586) can1 18EBFF0B#0203027E1603027E
(1589340261.703135) can1 08FE6E0B#FFFEFFFEFFFEFFFE
(1589340261.703706) can1 18F0010B#C0FF33FFFF500B3F
(1589340261.704294) can1 18FEBF0B#FFFEFFFFFFFFFFFF
(1589340261.723135) can1 08FE6E0B#FFFEFFFEFFFEFFFE
(1589340261.743137) can1 08FE6E0B#FFFEFFFEFFFEFFFE
(1589340261.745616) can1 18EBFF0B#031703027E180302
(1589340261.763144) can1 08FE6E0B#FFFEFFFEFFFEFFFE
(1589340261.783106) can1 08FE6E0B#FFFEFFFEFFFEFFFE
(1589340261.795625) can1 18EBFF0B#047E2203047E7F02
(1589340261.803105) can1 08FE6E0B#FFFEFFFEFFFEFFFE
(1589340261.803665) can1 18F0010B#C0FF33FFFF500B3F
(1589340261.804266) can1 18FEBF0B#FFFEFFFFFFFFFFFF
(1589340261.823106) can1 08FE6E0B#FFFEFFFEFFFEFFFE
(1589340261.843107) can1 08FE6E0B#FFFEFFFEFFFEFFFE
(1589340261.845586) can1 18EBFF0B#05057E15040700FF
(1589340261.852346) can1 18FECA25#04F35A2A0201FFFF
(1589340261.852945) can1 00F18F25#00FEFEFFFFFFFBFF
(1589340261.853494) can1 00D4258B#0605EA6DFBABF9B6
(1589340261.854054) can1 00D48B25#0605EA6DFBABF9B6
(1589340261.855935) can1 18FECA8B#00FF00000000FFFF
(1589340261.856785) can1 00F18F0B#00FEFEFFFFFFFBFF
(1589340261.863144) can1 08FE6E0B#FFFEFFFEFFFEFFFE
(1589340261.883136) can1 08FE6E0B#FFFEFFFEFFFEFFFE
(1589340261.903135) can1 08FE6E0B#FFFEFFFEFFFEFFFE
(1589340261.903696) can1 18F0010B#C0FF33FFFF500B3F
(1589340261.904265) can1 18FEBF0B#FFFEFFFFFFFFFFFF
(1589340261.923159) can1 08FE6E0B#FFFEFFFEFFFEFFFE
(1589340261.943153) can1 08FE6E0B#FFFEFFFEFFFEFFFE
(1589340261.963137) can1 08FE6E0B#FFFEFFFEFFFEFFFE
(1589340261.983136) can1 08FE6E0B#FFFEFFFEFFFEFFFE
(1589340262.003137) can1 08FE6E0B#FFFEFFFEFFFEFFFE
(1589340262.003698) can1 18F0010B#C0FF33FFFF500B3F
(1589340262.004266) can1 18FEBF0B#FFFEFFFFFFFFFFFF
(1589340262.023146) can1 08FE6E0B#FFFEFFFEFFFEFFFE
(1589340262.043138) can1 08FE6E0B#FFFEFFFEFFFEFFFE
(1589340262.063158) can1 08FE6E0B#FFFEFFFEFFFEFFFE
(1589340262.083147) can1 08FE6E0B#FFFEFFFEFFFEFFFE
(1589340262.103138) can1 08FE6E0B#FFFEFFFEFFFEFFFE
(1589340262.103985) can1 18F0010B#C0FF33FFFF500B3F
(1589340262.104865) can1 18FEBF0B#FFFEFFFFFFFFFFFF
(1589340262.123145) can1 08FE6E0B#FFFEFFFEFFFEFFFE
(1589340262.143139) can1 08FE6E0B#FFFEFFFEFFFEFFFE
(1589340262.163144) can1 08FE6E0B#FFFEFFFEFFFEFFFE
(1589340262.183197) can1 08FE6E0B#FFFEFFFEFFFEFFFE
(1589340262.203151) can1 08FE6E0B#FFFEFFFEFFFEFFFE
(1589340262.203767) can1 18F0010B#C0FF33FFFF500B3F
(1589340262.204635) can1 18FEBF0B#FFFEFFFFFFFFFFFF
(1589340262.223125) can1 08FE6E0B#FFFEFFFEFFFEFFFE
(1589340262.243153) can1 08FE6E0B#FFFEFFFEFFFEFFFE
(1589340262.263140) can1 08FE6E0B#FFFEFFFEFFFEFFFE
(1589340262.283140) can1 08FE6E0B#FFFEFFFEFFFEFFFE
(1589340262.303137) can1 08FE6E0B#FFFEFFFEFFFEFFFE
(1589340262.303945) can1 18F0010B#C0FF33FFFF500B3F
(1589340262.304825) can1 18FEBF0B#FFFEFFFFFFFFFFFF
(1589340262.323145) can1 08FE6E0B#FFFEFFFEFFFEFFFE
(1589340262.343173) can1 08FE6E0B#FFFEFFFEFFFEFFFE
(1589340262.363145) can1 08FE6E0B#FFFEFFFEFFFEFFFE
(1589340262.383171) can1 08FE6E0B#FFFEFFFEFFFEFFFE
(1589340262.403146) can1 08FE6E0B#FFFEFFFEFFFEFFFE
(1589340262.403705) can1 18F0010B#C0FF33FFFF500B3F
(1589340262.404295) can1 18FEBF0B#FFFEFFFFFFFFFFFF
(1589340262.423174) can1 08FE6E0B#FFFEFFFEFFFEFFFE
(1589340262.443173) can1 08FE6E0B#FFFEFFFEFFFEFFFE
(1589340262.463146) can1 08FE6E0B#FFFEFFFEFFFEFFFE
(1589340262.483172) can1 08FE6E0B#FFFEFFFEFFFEFFFE
(1589340262.503171) can1 08FE6E0B#FFFEFFFEFFFEFFFE
(1589340262.503736) can1 18F0010B#C0FF33FFFF500B3F
(1589340262.504345) can1 18FEBF0B#FFFEFFFFFFFFFFFF
(1589340262.523145) can1 08FE6E0B#FFFEFFFEFFFEFFFE
(1589340262.543183) can1 08FE6E0B#FFFEFFFEFFFEFFFE
(1589340262.563146) can1 08FE6E0B#FFFEFFFEFFFEFFFE
(1589340262.583177) can1 08FE6E0B#FFFEFFFEFFFEFFFE
(1589340262.595972) can1 18ECFF0B#20220005FFCAFE00
(1589340262.603177) can1 08FE6E0B#FFFEFFFEFFFEFFFE
(1589340262.603706) can1 18F0010B#C0FF33FFFF500B3F
(1589340262.604296) can1 18FEBF0B#FFFEFFFFFFFFFFFF
(1589340262.623146) can1 08FE6E0B#FFFEFFFEFFFEFFFE
(1589340262.643146) can1 08FE6E0B#FFFEFFFEFFFEFFFE
(1589340262.645626) can1 18EBFF0B#0104FF2B030D7E15
(1589340262.657694) can1 00D42580#0605BA28B4A75B06
(1589340262.658497) can1 00D4258F#0605D61DE5DCBDBB
(1589340262.659983) can1 00FECA8F#04F3AB04090CFFFF
(1589340262.660696) can1 00F18F00#0300FFF1FE0000FF
(1589340262.663216) can1 08FE6E0B#FFFEFFFEFFFEFFFE
(1589340262.683173) can1 08FE6E0B#FFFEFFFEFFFEFFFE
(1589340262.695626) can1 18EBFF0B#0203027E1603027E
(1589340262.703146) can1 08FE6E0B#FFFEFFFEFFFEFFFE
(1589340262.703735) can1 18F0010B#C0FF33FFFF500B3F
(1589340262.704305) can1 18FEBF0B#FFFEFFFFFFFFFFFF
(1589340262.723145) can1 08FE6E0B#FFFEFFFEFFFEFFFE
(1589340262.743146) can1 08FE6E0B#FFFEFFFEFFFEFFFE
(1589340262.745625) can1 18EBFF0B#031703027E180302
(1589340262.763146) can1 08FE6E0B#FFFEFFFEFFFEFFFE
(1589340262.783171) can1 08FE6E0B#FFFEFFFEFFFEFFFE
(1589340262.795627) can1 18EBFF0B#047E2203047E7F02
(1589340262.803176) can1 08FE6E0B#FFFEFFFEFFFEFFFE
(1589340262.803705) can1 18F0010B#C0FF33FFFF500B3F
(1589340262.804305) can1 18FEBF0B#FFFEFFFFFFFFFFFF
(1589340262.823145) can1 08FE6E0B#FFFEFFFEFFFEFFFE
(1589340262.843146) can1 08FE6E0B#FFFEFFFEFFFEFFFE
(1589340262.845655) can1 18EBFF0B#05057E15040700FF
(1589340262.852375) can1 18FECA25#04F35A2A0201FFFF
(1589340262.852946) can1 00F18F25#00FEFEFFFFFFFBFF
(1589340262.853465) can1 00D4258B#06050DD74F6D1F73
(1589340262.854021) can1 00D48B25#06050DD74F6D1F73
(1589340262.855945) can1 18FECA8B#00FF00000000FFFF
(1589340262.856785) can1 00F18F0B#00FEFEFFFFFFFBFF
(1589340262.863146) can1 08FE6E0B#FFFEFFFEFFFEFFFE
(1589340262.883172) can1 08FE6E0B#FFFEFFFEFFFEFFFE
(1589340262.903146) can1 08FE6E0B#FFFEFFFEFFFEFFFE
(1589340262.903705) can1 18F0010B#C0FF33FFFF500B3F
(1589340262.904305) can1 18FEBF0B#FFFEFFFFFFFFFFFF
(1589340262.923175) can1 08FE6E0B#FFFEFFFEFFFEFFFE
(1589340262.943177) can1 08FE6E0B#FFFEFFFEFFFEFFFE
(1589340262.963143) can1 08FE6E0B#FFFEFFFEFFFEFFFE
(1589340262.983176) can1 08FE6E0B#FFFEFFFEFFFEFFFE
(1589340263.003145) can1 08FE6E0B#FFFEFFFEFFFEFFFE
(1589340263.003815) can1 18F0010B#C0FF33FFFF500B3F
(1589340263.004666) can1 18FEBF0B#FFFEFFFFFFFFFFFF
(1589340263.023145) can1 08FE6E0B#FFFEFFFEFFFEFFFE
(1589340263.043157) can1 08FE6E0B#FFFEFFFEFFFEFFFE
(1589340263.063144) can1 08FE6E0B#FFFEFFFEFFFEFFFE
(1589340263.083174) can1 08FE6E0B#FFFEFFFEFFFEFFFE
(1589340263.103172) can1 08FE6E0B#FFFEFFFEFFFEFFFE
(1589340263.103736) can1 18F0010B#C0FF33FFFF500B3F
(1589340263.104305) can1 18FEBF0B#FFFEFFFFFFFFFFFF
(1589340263.123186) can1 08FE6E0B#FFFEFFFEFFFEFFFE
(1589340263.143147) can1 08FE6E0B#FFFEFFFEFFFEFFFE
(1589340263.163178) can1 08FE6E0B#FFFEFFFEFFFEFFFE
(1589340263.183146) can1 08FE6E0B#FFFEFFFEFFFEFFFE
(1589340263.203145) can1 08FE6E0B#FFFEFFFEFFFEFFFE
(1589340263.203705) can1 18F0010B#C0FF33FFFF500B3F
(1589340263.204305) can1 18FEBF0B#FFFEFFFFFFFFFFFF
(1589340263.223145) can1 08FE6E0B#FFFEFFFEFFFEFFFE
(1589340263.243177) can1 08FE6E0B#FFFEFFFEFFFEFFFE
(1589340263.263191) can1 08FE6E0B#FFFEFFFEFFFEFFFE
(1589340263.283146) can1 08FE6E0B#FFFEFFFEFFFEFFFE
(1589340263.303172) can1 08FE6E0B#FFFEFFFEFFFEFFFE
(1589340263.303706) can1 18F0010B#C0FF33FFFF500B3F
(1589340263.304305) can1 18FEBF0B#FFFEFFFFFFFFFFFF
(1589340263.323171) can1 08FE6E0B#FFFEFFFEFFFEFFFE
(1589340263.343172) can1 08FE6E0B#FFFEFFFEFFFEFFFE
(1589340263.363146) can1 08FE6E0B#FFFEFFFEFFFEFFFE
(1589340263.383145) can1 08FE6E0B#FFFEFFFEFFFEFFFE
(1589340263.403145) can1 08FE6E0B#FFFEFFFEFFFEFFFE
(1589340263.403704) can1 18F0010B#C0FF33FFFF500B3F
(1589340263.404304) can1 18FEBF0B#FFFEFFFFFFFFFFFF
(1589340263.423178) can1 08FE6E0B#FFFEFFFEFFFEFFFE
(1589340263.443166) can1 08FE6E0B#FFFEFFFEFFFEFFFE
(1589340263.463186) can1 08FE6E0B#FFFEFFFEFFFEFFFE
(1589340263.483227) can1 08FE6E0B#FFFEFFFEFFFEFFFE
(1589340263.503175) can1 08FE6E0B#FFFEFFFEFFFEFFFE
(1589340263.503772) can1 18F0010B#C0FF33FFFF500B3F
(1589340263.504344) can1 18FEBF0B#FFFEFFFFFFFFFFFF
(1589340263.523211) can1 08FE6E0B#FFFEFFFEFFFEFFFE
(1589340263.543175) can1 08FE6E0B#FFFEFFFEFFFEFFFE
(1589340263.563178) can1 08FE6E0B#FFFEFFFEFFFEFFFE
(1589340263.583177) can1 08FE6E0B#FFFEFFFEFFFEFFFE
(1589340263.595978) can1 18ECFF0B#20220005FFCAFE00
(1589340263.603218) can1 08FE6E0B#FFFEFFFEFFFEFFFE
(1589340263.603905) can1 18F0010B#C0FF33FFFF500B3F
(1589340263.604745) can1 18FEBF0B#FFFEFFFFFFFFFFFF
(1589340263.623176) can1 08FE6E0B#FFFEFFFEFFFEFFFE
(1589340263.643175) can1 08FE6E0B#FFFEFFFEFFFEFFFE
(1589340263.645651) can1 18EBFF0B#0104FF2B030D7E15
(1589340263.657616) can1 00D42580#06058349F6E6183F
(1589340263.658463) can1 00D4258F#0605BAA568D56C8F
(1589340263.660016) can1 00FECA8F#04F3AB04090CFFFF
(1589340263.660703) can1 00F18F00#0300FFF1FE0000FF
(1589340263.663263) can1 08FE6E0B#FFFEFFFEFFFEFFFE
(1589340263.683185) can1 08FE6E0B#FFFEFFFEFFFEFFFE
(1589340263.695666) can1 18EBFF0B#0203027E1603027E
(1589340263.703185) can1 08FE6E0B#FFFEFFFEFFFEFFFE
(1589340263.703745) can1 18F0010B#C0FF33FFFF500B3F
(1589340263.704335) can1 18FEBF0B#FFFEFFFFFFFFFFFF
(1589340263.723185) can1 08FE6E0B#FFFEFFFEFFFEFFFE
(1589340263.743186) can1 08FE6E0B#FFFEFFFEFFFEFFFE
(1589340263.745627) can1 18EBFF0B#031703027E180302
(1589340263.763178) can1 08FE6E0B#FFFEFFFEFFFEFFFE
(1589340263.783175) can1 08FE6E0B#FFFEFFFEFFFEFFFE
(1589340263.795666) can1 18EBFF0B#047E2203047E7F02
(1589340263.803185) can1 08FE6E0B#FFFEFFFEFFFEFFFE
(1589340263.803825) can1 18F0010B#C0FF33FFFF500B3F
(1589340263.804695) can1 18FEBF0B#FFFEFFFFFFFFFFFF
(1589340263.823176) can1 08FE6E0B#FFFEFFFEFFFEFFFE
(1589340263.843175) can1 08FE6E0B#FFFEFFFEFFFEFFFE
(1589340263.845657) can1 18EBFF0B#05057E15040700FF
(1589340263.852376) can1 18FECA25#04F35A2A0201FFFF
(1589340263.852945) can1 00F18F25#00FEFEFFFFFFFBFF
(1589340263.853495) can1 00D4258B#060535390FBB7612
(1589340263.854025) can1 00D48B25#060535390FBB7612
(1589340263.855936) can1 18FECA8B#00FF00000000FFFF
(1589340263.856816) can1 00F18F0B#00FEFEFFFFFFFBFF
(1589340263.863185) can1 08FE6E0B#FFFEFFFEFFFEFFFE
(1589340263.883215) can1 08FE6E0B#FFFEFFFEFFFEFFFE
(1589340263.903176) can1 08FE6E0B#FFFEFFFEFFFEFFFE
(1589340263.903736) can1 18F0010B#C0FF33FFFF500B3F
(1589340263.904345) can1 18FEBF0B#FFFEFFFFFFFFFFFF
(1589340263.923186) can1 08FE6E0B#FFFEFFFEFFFEFFFE
(1589340263.943215) can1 08FE6E0B#FFFEFFFEFFFEFFFE
(1589340263.963219) can1 08FE6E0B#FFFEFFFEFFFEFFFE
(1589340263.983186) can1 08FE6E0B#FFFEFFFEFFFEFFFE
(1589340264.003176) can1 08FE6E0B#FFFEFFFEFFFEFFFE
(1589340264.003735) can1 18F0010B#C0FF33FFFF500B3F
(1589340264.004335) can1 18FEBF0B#FFFEFFFFFFFFFFFF
(1589340264.023185) can1 08FE6E0B#FFFEFFFEFFFEFFFE
(1589340264.043185) can1 08FE6E0B#FFFEFFFEFFFEFFFE
(1589340264.063185) can1 08FE6E0B#FFFEFFFEFFFEFFFE
(1589340264.083211) can1 08FE6E0B#FFFEFFFEFFFEFFFE
(1589340264.103214) can1 08FE6E0B#FFFEFFFEFFFEFFFE
(1589340264.103976) can1 18F0010B#C0FF33FFFF500B3F
(1589340264.104825) can1 18FEBF0B#FFFEFFFFFFFFFFFF
(1589340264.123166) can1 08FE6E0B#FFFEFFFEFFFEFFFE
(1589340264.143166) can1 08FE6E0B#FFFEFFFEFFFEFFFE
(1589340264.163217) can1 08FE6E0B#FFFEFFFEFFFEFFFE
(1589340264.183186) can1 08FE6E0B#FFFEFFFEFFFEFFFE
(1589340264.203185) can1 08FE6E0B#FFFEFFFEFFFEFFFE
(1589340264.203745) can1 18F0010B#C0FF33FFFF500B3F
(1589340264.204334) can1 18FEBF0B#FFFEFFFFFFFFFFFF
(1589340264.223185) can1 08FE6E0B#FFFEFFFEFFFEFFFE
(1589340264.243185) can1 08FE6E0B#FFFEFFFEFFFEFFFE
(1589340264.263214) can1 08FE6E0B#FFFEFFFEFFFEFFFE
(1589340264.283211) can1 08FE6E0B#FFFEFFFEFFFEFFFE
(1589340264.303210) can1 08FE6E0B#FFFEFFFEFFFEFFFE
(1589340264.303745) can1 18F0010B#C0FF33FFFF500B3F
(1589340264.304335) can1 18FEBF0B#FFFEFFFFFFFFFFFF
(1589340264.323185) can1 08FE6E0B#FFFEFFFEFFFEFFFE
(1589340264.343212) can1 08FE6E0B#FFFEFFFEFFFEFFFE
(1589340264.363211) can1 08FE6E0B#FFFEFFFEFFFEFFFE
(1589340264.383186) can1 08FE6E0B#FFFEFFFEFFFEFFFE
(1589340264.403186) can1 08FE6E0B#FFFEFFFEFFFEFFFE
(1589340264.403745) can1 18F0010B#C0FF33FFFF500B3F
(1589340264.404345) can1 18FEBF0B#FFFEFFFFFFFFFFFF
(1589340264.423219) can1 08FE6E0B#FFFEFFFEFFFEFFFE
(1589340264.443237) can1 08FE6E0B#FFFEFFFEFFFEFFFE
(1589340264.463221) can1 08FE6E0B#FFFEFFFEFFFEFFFE
(1589340264.483212) can1 08FE6E0B#FFFEFFFEFFFEFFFE
(1589340264.503187) can1 08FE6E0B#FFFEFFFEFFFEFFFE
(1589340264.503746) can1 18F0010B#C0FF33FFFF500B3F
(1589340264.504345) can1 18FEBF0B#FFFEFFFFFFFFFFFF
(1589340264.523186) can1 08FE6E0B#FFFEFFFEFFFEFFFE
(1589340264.543185) can1 08FE6E0B#FFFEFFFEFFFEFFFE
(1589340264.563186) can1 08FE6E0B#FFFEFFFEFFFEFFFE
(1589340264.583211) can1 08FE6E0B#FFFEFFFEFFFEFFFE
(1589340264.595986) can1 18ECFF0B#20220005FFCAFE00
(1589340264.603211) can1 08FE6E0B#FFFEFFFEFFFEFFFE
(1589340264.604055) can1 18F0010B#C0FF33FFFF500B3F
(1589340264.604896) can1 18FEBF0B#FFFEFFFFFFFFFFFF
(1589340264.623185) can1 08FE6E0B#FFFEFFFEFFFEFFFE
(1589340264.643195) can1 08FE6E0B#FFFEFFFEFFFEFFFE
(1589340264.645673) can1 18EBFF0B#0104FF2B030D7E15
(1589340264.657537) can1 00D42580#06053C29A03CC538
(1589340264.658504) can1 00D4258F#0605E02F4E07D85E
(1589340264.660022) can1 00FECA8F#04F3AB04090CFFFF
(1589340264.660703) can1 00F18F00#0300FFF1FE0000FF
(1589340264.663263) can1 08FE6E0B#FFFEFFFEFFFEFFFE
(1589340264.683185) can1 08FE6E0B#FFFEFFFEFFFEFFFE
(1589340264.695705) can1 18EBFF0B#0203027E1603027E
(1589340264.703185) can1 08FE6E0B#FFFEFFFEFFFEFFFE
(1589340264.703745) can1 18F0010B#C0FF33FFFF500B3F
(1589340264.704345) can1 18FEBF0B#FFFEFFFFFFFFFFFF
(1589340264.723253) can1 08FE6E0B#FFFEFFFEFFFEFFFE
(1589340264.743186) can1 08FE6E0B#FFFEFFFEFFFEFFFE
(1589340264.745665) can1 18EBFF0B#031703027E180302
(1589340264.763219) can1 08FE6E0B#FFFEFFFEFFFEFFFE
(1589340264.783187) can1 08FE6E0B#FFFEFFFEFFFEFFFE
(1589340264.795695) can1 18EBFF0B#047E2203047E7F02
(1589340264.803217) can1 08FE6E0B#FFFEFFFEFFFEFFFE
(1589340264.803905) can1 18F0010B#C0FF33FFFF500B3F
(1589340264.804745) can1 18FEBF0B#FFFEFFFFFFFFFFFF
(1589340264.823185) can1 08FE6E0B#FFFEFFFEFFFEFFFE
(1589340264.843185) can1 08FE6E0B#FFFEFFFEFFFEFFFE
(1589340264.845705) can1 18EBFF0B#05057E15040700FF
(1589340264.852378) can1 18FECA25#04F35A2A0201FFFF
(1589340264.852945) can1 00F18F25#00FEFEFFFFFFFBFF
(1589340264.853496) can1 00D4258B#06053101D666417B
(1589340264.854054) can1 00D48B25#06053101D666417B
(1589340264.855945) can1 18FECA8B#00FF00000000FFFF
(1589340264.856815) can1 00F18F0B#00FEFEFFFFFFFBFF
(1589340264.863214) can1 08FE6E0B#FFFEFFFEFFFEFFFE
(1589340264.883185) can1 08FE6E0B#FFFEFFFEFFFEFFFE
(1589340264.903186) can1 08FE6E0B#FFFEFFFEFFFEFFFE
(1589340264.904027) can1 18F0010B#C0FF33FFFF500B3F
(1589340264.904895) can1 18FEBF0B#FFFEFFFFFFFFFFFF
(1589340264.923222) can1 08FE6E0B#FFFEFFFEFFFEFFFE
(1589340264.943215) can1 08FE6E0B#FFFEFFFEFFFEFFFE
(1589340264.963185) can1 08FE6E0B#FFFEFFFEFFFEFFFE
(1589340264.983217) can1 08FE6E0B#FFFEFFFEFFFEFFFE
(1589340265.003215) can1 08FE6E0B#FFFEFFFEFFFEFFFE
(1589340265.003865) can1 18F0010B#C0FF33FFFF500B3F
(1589340265.004706) can1 18FEBF0B#FFFEFFFFFFFFFFFF
(1589340265.023186) can1 08FE6E0B#FFFEFFFEFFFEFFFE
(1589340265.043215) can1 08FE6E0B#FFFEFFFEFFFEFFFE
(1589340265.063185) can1 08FE6E0B#FFFEFFFEFFFEFFFE
(1589340265.083186) can1 08FE6E0B#FFFEFFFEFFFEFFFE
(1589340265.103215) can1 08FE6E0B#FFFEFFFEFFFEFFFE
(1589340265.104066) can1 18F0010B#C0FF33FFFF500B3F
(1589340265.104905) can1 18FEBF0B#FFFEFFFFFFFFFFFF
(1589340265.123205) can1 08FE6E0B#FFFEFFFEFFFEFFFE
(1589340265.143253) can1 08FE6E0B#FFFEFFFEFFFEFFFE
(1589340265.163221) can1 08FE6E0B#FFFEFFFEFFFEFFFE
(1589340265.183218) can1 08FE6E0B#FFFEFFFEFFFEFFFE
(1589340265.203225) can1 08FE6E0B#FFFEFFFEFFFEFFFE
(1589340265.204145) can1 18F0010B#C0FF33FFFF500B3F
(1589340265.204985) can1 18FEBF0B#FFFEFFFFFFFFFFFF
(1589340265.223216) can1 08FE6E0B#FFFEFFFEFFFEFFFE
(1589340265.243216) can1 08FE6E0B#FFFEFFFEFFFEFFFE
(1589340265.263226) can1 08FE6E0B#FFFEFFFEFFFEFFFE
(1589340265.283217) can1 08FE6E0B#FFFEFFFEFFFEFFFE
(1589340265.303225) can1 08FE6E0B#FFFEFFFEFFFEFFFE
(1589340265.303865) can1 18F0010B#C0FF33FFFF500B3F
(1589340265.304735) can1 18FEBF0B#FFFEFFFFFFFFFFFF
(1589340265.323225) can1 08FE6E0B#FFFEFFFEFFFEFFFE
(1589340265.343254) can1 08FE6E0B#FFFEFFFEFFFEFFFE
(1589340265.363224) can1 08FE6E0B#FFFEFFFEFFFEFFFE
(1589340265.383218) can1 08FE6E0B#FFFEFFFEFFFEFFFE
(1589340265.403217) can1 08FE6E0B#FFFEFFFEFFFEFFFE
(1589340265.403785) can1 18F0010B#C0FF33FFFF500B3F
(1589340265.404375) can1 18FEBF0B#FFFEFFFFFFFFFFFF
(1589340265.423216) can1 08FE6E0B#FFFEFFFEFFFEFFFE
(1589340265.443216) can1 08FE6E0B#FFFEFFFEFFFEFFFE
(1589340265.463219) can1 08FE6E0B#FFFEFFFEFFFEFFFE
(1589340265.483251) can1 08FE6E0B#FFFEFFFEFFFEFFFE
(1589340265.503226) can1 08FE6E0B#FFFEFFFEFFFEFFFE
(1589340265.503785) can1 18F0010B#C0FF33FFFF500B3F
(1589340265.504375) can1 18FEBF0B#FFFEFFFFFFFFFFFF
(1589340265.523216) can1 08FE6E0B#FFFEFFFEFFFEFFFE
(1589340265.543216) can1 08FE6E0B#FFFEFFFEFFFEFFFE
(1589340265.563225) can1 08FE6E0B#FFFEFFFEFFFEFFFE
(1589340265.583217) can1 08FE6E0B#FFFEFFFEFFFEFFFE
(1589340265.596027) can1 18ECFF0B#20220005FFCAFE00
(1589340265.603217) can1 08FE6E0B#FFFEFFFEFFFEFFFE
(1589340265.603866) can1 18F0010B#C0FF33FFFF500B3F
(1589340265.604705) can1 18FEBF0B#FFFEFFFFFFFFFFFF
(1589340265.623263) can1 08FE6E0B#FFFEFFFEFFFEFFFE
(1589340265.643224) can1 08FE6E0B#FFFEFFFEFFFEFFFE
(1589340265.645697) can1 18EBFF0B#0104FF2B030D7E15
(1589340265.657545) can1 00D42580#0605EF3B4C51CA69
(1589340265.658531) can1 00D4258F#0605BA67540FD50A
(1589340265.660024) can1 00FECA8F#04F3AB04090CFFFF
(1589340265.660696) can1 00F18F00#0300FFF1FE0000FF
(1589340265.663345) can1 08FE6E0B#FFFEFFFEFFFEFFFE
(1589340265.683215) can1 08FE6E0B#FFFEFFFEFFFEFFFE
(1589340265.695725) can1 18EBFF0B#0203027E1603027E
(1589340265.703225) can1 08FE6E0B#FFFEFFFEFFFEFFFE
(1589340265.703785) can1 18F0010B#C0FF33FFFF500B3F
(1589340265.704376) can1 18FEBF0B#FFFEFFFFFFFFFFFF
(1589340265.723225) can1 08FE6E0B#FFFEFFFEFFFEFFFE
(1589340265.743225) can1 08FE6E0B#FFFEFFFEFFFEFFFE
(1589340265.745705) can1 18EBFF0B#031703027E180302
(1589340265.763225) can1 08FE6E0B#FFFEFFFEFFFEFFFE
(1589340265.783227) can1 08FE6E0B#FFFEFFFEFFFEFFFE
(1589340265.795737) can1 18EBFF0B#047E2203047E7F02
(1589340265.803265) can1 08FE6E0B#FFFEFFFEFFFEFFFE
(1589340265.803865) can1 18F0010B#C0FF33FFFF500B3F
(1589340265.804705) can1 18FEBF0B#FFFEFFFFFFFFFFFF
(1589340265.823225) can1 08FE6E0B#FFFEFFFEFFFEFFFE
(1589340265.843226) can1 08FE6E0B#FFFEFFFEFFFEFFFE
(1589340265.845703) can1 18EBFF0B#05057E15040700FF
(1589340265.852376) can1 18FECA25#04F35A2A0201FFFF
(1589340265.852945) can1 00F18F25#00FEFEFFFFFFFBFF
(1589340265.853495) can1 00D4258B#0605EAB41D924333
(1589340265.854025) can1 00D48B25#0605EAB41D924333
(1589340265.855935) can1 18FECA8B#00FF00000000FFFF
(1589340265.856825) can1 00F18F0B#00FEFEFFFFFFFBFF
(1589340265.863224) can1 08FE6E0B#FFFEFFFEFFFEFFFE
(1589340265.883251) can1 08FE6E0B#FFFEFFFEFFFEFFFE
(1589340265.903251) can1 08FE6E0B#FFFEFFFEFFFEFFFE
(1589340265.904096) can1 18F0010B#C0FF33FFFF500B3F
(1589340265.904945) can1 18FEBF0B#FFFEFFFFFFFFFFFF
(1589340265.923225) can1 08FE6E0B#FFFEFFFEFFFEFFFE
(1589340265.943225) can1 08FE6E0B#FFFEFFFEFFFEFFFE
(1589340265.963224) can1 08FE6E0B#FFFEFFFEFFFEFFFE
(1589340265.983251) can1 08FE6E0B#FFFEFFFEFFFEFFFE
(1589340266.003226) can1 08FE6E0B#FFFEFFFEFFFEFFFE
(1589340266.003785) can1 18F0010B#C0FF33FFFF500B3F
(1589340266.004411) can1 18FEBF0B#FFFEFFFFFFFFFFFF
(1589340266.023233) can1 08FE6E0B#FFFEFFFEFFFEFFFE
(1589340266.043206) can1 08FE6E0B#FFFEFFFEFFFEFFFE
(1589340266.063251) can1 08FE6E0B#FFFEFFFEFFFEFFFE
(1589340266.083227) can1 08FE6E0B#FFFEFFFEFFFEFFFE
(1589340266.103251) can1 08FE6E0B#FFFEFFFEFFFEFFFE
(1589340266.103946) can1 18F0010B#C0FF33FFFF500B3F
(1589340266.104815) can1 18FEBF0B#FFFEFFFFFFFFFFFF
(1589340266.123251) can1 08FE6E0B#FFFEFFFEFFFEFFFE
(1589340266.143262) can1 08FE6E0B#FFFEFFFEFFFEFFFE
(1589340266.163258) can1 08FE6E0B#FFFEFFFEFFFEFFFE
(1589340266.183226) can1 08FE6E0B#FFFEFFFEFFFEFFFE
(1589340266.203271) can1 08FE6E0B#FFFEFFFEFFFEFFFE
(1589340266.203805) can1 18F0010B#C0FF33FFFF500B3F
(1589340266.204405) can1 18FEBF0B#FFFEFFFFFFFFFFFF
(1589340266.223291) can1 08FE6E0B#FFFEFFFEFFFEFFFE
(1589340266.243226) can1 08FE6E0B#FFFEFFFEFFFEFFFE
(1589340266.263256) can1 08FE6E0B#FFFEFFFEFFFEFFFE
(1589340266.283254) can1 08FE6E0B#FFFEFFFEFFFEFFFE
(1589340266.303251) can1 08FE6E0B#FFFEFFFEFFFEFFFE
(1589340266.303785) can1 18F0010B#C0FF33FFFF500B3F
(1589340266.304386) can1 18FEBF0B#FFFEFFFFFFFFFFFF
(1589340266.323251) can1 08FE6E0B#FFFEFFFEFFFEFFFE
(1589340266.343253) can1 08FE6E0B#FFFEFFFEFFFEFFFE
(1589340266.363226) can1 08FE6E0B#FFFEFFFEFFFEFFFE
(1589340266.383294) can1 08FE6E0B#FFFEFFFEFFFEFFFE
(1589340266.403227) can1 08FE6E0B#FFFEFFFEFFFEFFFE
(1589340266.403785) can1 18F0010B#C0FF33FFFF500B3F
(1589340266.404385) can1 18FEBF0B#FFFEFFFFFFFFFFFF
(1589340266.423225) can1 08FE6E0B#FFFEFFFEFFFEFFFE
(1589340266.443237) can1 08FE6E0B#FFFEFFFEFFFEFFFE
(1589340266.463226) can1 08FE6E0B#FFFEFFFEFFFEFFFE
(1589340266.483252) can1 08FE6E0B#FFFEFFFEFFFEFFFE
(1589340266.503225) can1 08FE6E0B#FFFEFFFEFFFEFFFE
(1589340266.503786) can1 18F0010B#C0FF33FFFF500B3F
(1589340266.504385) can1 18FEBF0B#FFFEFFFFFFFFFFFF
(1589340266.523266) can1 08FE6E0B#FFFEFFFEFFFEFFFE
(1589340266.543254) can1 08FE6E0B#FFFEFFFEFFFEFFFE
(1589340266.563226) can1 08FE6E0B#FFFEFFFEFFFEFFFE
(1589340266.583226) can1 08FE6E0B#FFFEFFFEFFFEFFFE
(1589340266.596025) can1 18ECFF0B#20220005FFCAFE00
(1589340266.603225) can1 08FE6E0B#FFFEFFFEFFFEFFFE
(1589340266.603786) can1 18F0010B#C0FF33FFFF500B3F
(1589340266.604414) can1 18FEBF0B#FFFEFFFFFFFFFFFF
(1589340266.623225) can1 08FE6E0B#FFFEFFFEFFFEFFFE
(1589340266.643265) can1 08FE6E0B#FFFEFFFEFFFEFFFE
(1589340266.645705) can1 18EBFF0B#0104FF2B030D7E15
(1589340266.657577) can1 00D42580#0605D6291457BE39
(1589340266.658537) can1 00D4258F#060553460E05DDEB
(1589340266.660023) can1 00FECA8F#04F3AB04090CFFFF
(1589340266.660736) can1 00F18F00#0300FFF1FE0000FF
(1589340266.663343) can1 08FE6E0B#FFFEFFFEFFFEFFFE
(1589340266.683225) can1 08FE6E0B#FFFEFFFEFFFEFFFE
(1589340266.695735) can1 18EBFF0B#0203027E1603027E
(1589340266.703265) can1 08FE6E0B#FFFEFFFEFFFEFFFE
(1589340266.703825) can1 18F0010B#C0FF33FFFF500B3F
(1589340266.704545) can1 18FEBF0B#FFFEFFFFFFFFFFFF
(1589340266.723225) can1 08FE6E0B#FFFEFFFEFFFEFFFE
(1589340266.743255) can1 08FE6E0B#FFFEFFFEFFFEFFFE
(1589340266.745705) can1 18EBFF0B#031703027E180302
(1589340266.763254) can1 08FE6E0B#FFFEFFFEFFFEFFFE
(1589340266.783226) can1 08FE6E0B#FFFEFFFEFFFEFFFE
(1589340266.795776) can1 18EBFF0B#047E2203047E7F02
(1589340266.803226) can1 08FE6E0B#FFFEFFFEFFFEFFFE
(1589340266.803785) can1 18F0010B#C0FF33FFFF500B3F
(1589340266.804385) can1 18FEBF0B#FFFEFFFFFFFFFFFF
(1589340266.823255) can1 08FE6E0B#FFFEFFFEFFFEFFFE
(1589340266.843266) can1 08FE6E0B#FFFEFFFEFFFEFFFE
(1589340266.845745) can1 18EBFF0B#05057E15040700FF
(1589340266.852376) can1 18FECA25#04F35A2A0201FFFF
(1589340266.852945) can1 00F18F25#00FEFEFFFFFFFBFF
(1589340266.853495) can1 00D4258B#0605826ED6670B65
(1589340266.854025) can1 00D48B25#0605826ED6670B65
(1589340266.855936) can1 18FECA8B#00FF00000000FFFF
(1589340266.856826) can1 00F18F0B#00FEFEFFFFFFFBFF
(1589340266.863255) can1 08FE6E0B#FFFEFFFEFFFEFFFE
(1589340266.883226) can1 08FE6E0B#FFFEFFFEFFFEFFFE
(1589340266.903265) can1 08FE6E0B#FFFEFFFEFFFEFFFE
(1589340266.904105) can1 18F0010B#C0FF33FFFF500B3F
(1589340266.904945) can1 18FEBF0B#FFFEFFFFFFFFFFFF
(1589340266.923312) can1 08FE6E0B#FFFEFFFEFFFEFFFE
(1589340266.943246) can1 08FE6E0B#FFFEFFFEFFFEFFFE
(1589340266.963264) can1 08FE6E0B#FFFEFFFEFFFEFFFE
(1589340266.983266) can1 08FE6E0B#FFFEFFFEFFFEFFFE
(1589340267.003255) can1 08FE6E0B#FFFEFFFEFFFEFFFE
(1589340267.003905) can1 18F0010B#C0FF33FFFF500B3F
(1589340267.004745) can1 18FEBF0B#FFFEFFFFFFFFFFFF
(1589340267.023265) can1 08FE6E0B#FFFEFFFEFFFEFFFE
(1589340267.043255) can1 08FE6E0B#FFFEFFFEFFFEFFFE
(1589340267.063257) can1 08FE6E0B#FFFEFFFEFFFEFFFE
(1589340267.083257) can1 08FE6E0B#FFFEFFFEFFFEFFFE
(1589340267.103276) can1 08FE6E0B#FFFEFFFEFFFEFFFE
(1589340267.104126) can1 18F0010B#C0FF33FFFF500B3F
(1589340267.104965) can1 18FEBF0B#FFFEFFFFFFFFFFFF
(1589340267.123255) can1 08FE6E0B#FFFEFFFEFFFEFFFE
(1589340267.143257) can1 08FE6E0B#FFFEFFFEFFFEFFFE
(1589340267.163257) can1 08FE6E0B#FFFEFFFEFFFEFFFE
(1589340267.183257) can1 08FE6E0B#FFFEFFFEFFFEFFFE
(1589340267.203315) can1 08FE6E0B#FFFEFFFEFFFEFFFE
(1589340267.203846) can1 18F0010B#C0FF33FFFF500B3F
(1589340267.204435) can1 18FEBF0B#FFFEFFFFFFFFFFFF
(1589340267.223245) can1 08FE6E0B#FFFEFFFEFFFEFFFE
(1589340267.243275) can1 08FE6E0B#FFFEFFFEFFFEFFFE
(1589340267.263266) can1 08FE6E0B#FFFEFFFEFFFEFFFE
(1589340267.283266) can1 08FE6E0B#FFFEFFFEFFFEFFFE
(1589340267.303265) can1 08FE6E0B#FFFEFFFEFFFEFFFE
(1589340267.303825) can1 18F0010B#C0FF33FFFF500B3F
(1589340267.304415) can1 18FEBF0B#FFFEFFFFFFFFFFFF
(1589340267.323265) can1 08FE6E0B#FFFEFFFEFFFEFFFE
(1589340267.343266) can1 08FE6E0B#FFFEFFFEFFFEFFFE
(1589340267.363265) can1 08FE6E0B#FFFEFFFEFFFEFFFE
(1589340267.383266) can1 08FE6E0B#FFFEFFFEFFFEFFFE
(1589340267.403278) can1 08FE6E0B#FFFEFFFEFFFEFFFE
(1589340267.403835) can1 18F0010B#C0FF33FFFF500B3F
(1589340267.404404) can1 18FEBF0B#FFFEFFFFFFFFFFFF
(1589340267.423245) can1 08FE6E0B#FFFEFFFEFFFEFFFE
(1589340267.443291) can1 08FE6E0B#FFFEFFFEFFFEFFFE
(1589340267.463266) can1 08FE6E0B#FFFEFFFEFFFEFFFE
(1589340267.483266) can1 08FE6E0B#FFFEFFFEFFFEFFFE
(1589340267.503275) can1 08FE6E0B#FFFEFFFEFFFEFFFE
(1589340267.503886) can1 18F0010B#C0FF33FFFF500B3F
(1589340267.504725) can1 18FEBF0B#FFFEFFFFFFFFFFFF
(1589340267.523275) can1 08FE6E0B#FFFEFFFEFFFEFFFE
(1589340267.543246) can1 08FE6E0B#FFFEFFFEFFFEFFFE
(1589340267.563265) can1 08FE6E0B#FFFEFFFEFFFEFFFE
(1589340267.583291) can1 08FE6E0B#FFFEFFFEFFFEFFFE
(1589340267.596065) can1 18ECFF0B#20220005FFCAFE00
(1589340267.603265) can1 08FE6E0B#FFFEFFFEFFFEFFFE
(1589340267.603976) can1 18F0010B#C0FF33FFFF500B3F
(1589340267.604576) can1 18FEBF0B#FFFEFFFFFFFFFFFF
(1589340267.623267) can1 08FE6E0B#FFFEFFFEFFFEFFFE
(1589340267.643265) can1 08FE6E0B#FFFEFFFEFFFEFFFE
(1589340267.645745) can1 18EBFF0B#0104FF2B030D7E15
(1589340267.657657) can1 00D42580#0605BD66C4450770
(1589340267.658534) can1 00D4258F#06055EC79D4FE1AD
(1589340267.660023) can1 00FECA8F#04F3AB04090CFFFF
(1589340267.660744) can1 00F18F00#0300FFF1FE0000FF
(1589340267.663343) can1 08FE6E0B#FFFEFFFEFFFEFFFE
(1589340267.683275) can1 08FE6E0B#FFFEFFFEFFFEFFFE
(1589340267.695727) can1 18EBFF0B#0203027E1603027E
(1589340267.703271) can1 08FE6E0B#FFFEFFFEFFFEFFFE
(1589340267.703831) can1 18F0010B#C0FF33FFFF500B3F
(1589340267.704405) can1 18FEBF0B#FFFEFFFFFFFFFFFF
(1589340267.723276) can1 08FE6E0B#FFFEFFFEFFFEFFFE
(1589340267.743275) can1 08FE6E0B#FFFEFFFEFFFEFFFE
(1589340267.745755) can1 18EBFF0B#031703027E180302
(1589340267.763264) can1 08FE6E0B#FFFEFFFEFFFEFFFE
(1589340267.783292) can1 08FE6E0B#FFFEFFFEFFFEFFFE
(1589340267.795775) can1 18EBFF0B#047E2203047E7F02
(1589340267.803265) can1 08FE6E0B#FFFEFFFEFFFEFFFE
(1589340267.803975) can1 18F0010B#C0FF33FFFF500B3F
(1589340267.804857) can1 18FEBF0B#FFFEFFFFFFFFFFFF
(1589340267.823265) can1 08FE6E0B#FFFEFFFEFFFEFFFE
(1589340267.843266) can1 08FE6E0B#FFFEFFFEFFFEFFFE
(1589340267.845742) can1 18EBFF0B#05057E15040700FF
(1589340267.852376) can1 18FECA25#04F35A2A0201FFFF
(1589340267.852946) can1 00F18F25#00FEFEFFFFFFFBFF
(1589340267.853506) can1 00D4258B#06053F050FF043D1
(1589340267.854065) can1 00D48B25#06053F050FF043D1
(1589340267.855945) can1 18FECA8B#00FF00000000FFFF
(1589340267.856825) can1 00F18F0B#00FEFEFFFFFFFBFF
(1589340267.863295) can1 08FE6E0B#FFFEFFFEFFFEFFFE
(1589340267.883266) can1 08FE6E0B#FFFEFFFEFFFEFFFE
(1589340267.903265) can1 08FE6E0B#FFFEFFFEFFFEFFFE
(1589340267.903825) can1 18F0010B#C0FF33FFFF500B3F
(1589340267.904425) can1 18FEBF0B#FFFEFFFFFFFFFFFF
(1589340267.923265) can1 08FE6E0B#FFFEFFFEFFFEFFFE
(1589340267.943300) can1 08FE6E0B#FFFEFFFEFFFEFFFE
(1589340267.963291) can1 08FE6E0B#FFFEFFFEFFFEFFFE
(1589340267.983292) can1 08FE6E0B#FFFEFFFEFFFEFFFE
(1589340268.003266) can1 08FE6E0B#FFFEFFFEFFFEFFFE
(1589340268.004186) can1 18F0010B#C0FF33FFFF500B3F
(1589340268.005055) can1 18FEBF0B#FFFEFFFFFFFFFFFF
(1589340268.023265) can1 08FE6E0B#FFFEFFFEFFFEFFFE
(1589340268.043265) can1 08FE6E0B#FFFEFFFEFFFEFFFE
(1589340268.063306) can1 08FE6E0B#FFFEFFFEFFFEFFFE
(1589340268.083311) can1 08FE6E0B#FFFEFFFEFFFEFFFE
(1589340268.103285) can1 08FE6E0B#FFFEFFFEFFFEFFFE
(1589340268.103927) can1 18F0010B#C0FF33FFFF500B3F
(1589340268.104836) can1 18FEBF0B#FFFEFFFFFFFFFFFF
(1589340268.123287) can1 08FE6E0B#FFFEFFFEFFFEFFFE
(1589340268.143276) can1 08FE6E0B#FFFEFFFEFFFEFFFE
(1589340268.163299) can1 08FE6E0B#FFFEFFFEFFFEFFFE
(1589340268.183266) can1 08FE6E0B#FFFEFFFEFFFEFFFE
(1589340268.203265) can1 08FE6E0B#FFFEFFFEFFFEFFFE
(1589340268.203825) can1 18F0010B#C0FF33FFFF500B3F
(1589340268.204425) can1 18FEBF0B#FFFEFFFFFFFFFFFF
(1589340268.223265) can1 08FE6E0B#FFFEFFFEFFFEFFFE
(1589340268.243297) can1 08FE6E0B#FFFEFFFEFFFEFFFE
(1589340268.263299) can1 08FE6E0B#FFFEFFFEFFFEFFFE
(1589340268.283267) can1 08FE6E0B#FFFEFFFEFFFEFFFE
(1589340268.303297) can1 08FE6E0B#FFFEFFFEFFFEFFFE
(1589340268.303865) can1 18F0010B#C0FF33FFFF500B3F
(1589340268.304456) can1 18FEBF0B#FFFEFFFFFFFFFFFF
(1589340268.323267) can1 08FE6E0B#FFFEFFFEFFFEFFFE
(1589340268.343291) can1 08FE6E0B#FFFEFFFEFFFEFFFE
(1589340268.363297) can1 08FE6E0B#FFFEFFFEFFFEFFFE
(1589340268.383296) can1 08FE6E0B#FFFEFFFEFFFEFFFE
(1589340268.403292) can1 08FE6E0B#FFFEFFFEFFFEFFFE
(1589340268.403985) can1 18F0010B#C0FF33FFFF500B3F
(1589340268.404825) can1 18FEBF0B#FFFEFFFFFFFFFFFF
(1589340268.423331) can1 08FE6E0B#FFFEFFFEFFFEFFFE
(1589340268.443315) can1 08FE6E0B#FFFEFFFEFFFEFFFE
(1589340268.463302) can1 08FE6E0B#FFFEFFFEFFFEFFFE
(1589340268.483333) can1 08FE6E0B#FFFEFFFEFFFEFFFE
(1589340268.503296) can1 08FE6E0B#FFFEFFFEFFFEFFFE
(1589340268.503851) can1 18F0010B#C0FF33FFFF500B3F
(1589340268.504425) can1 18FEBF0B#FFFEFFFFFFFFFFFF
(1589340268.523267) can1 08FE6E0B#FFFEFFFEFFFEFFFE
(1589340268.543296) can1 08FE6E0B#FFFEFFFEFFFEFFFE
(1589340268.563301) can1 08FE6E0B#FFFEFFFEFFFEFFFE
(1589340268.583296) can1 08FE6E0B#FFFEFFFEFFFEFFFE
(1589340268.596096) can1 18ECFF0B#20220005FFCAFE00
(1589340268.603295) can1 08FE6E0B#FFFEFFFEFFFEFFFE
(1589340268.603854) can1 18F0010B#C0FF33FFFF500B3F
(1589340268.604425) can1 18FEBF0B#FFFEFFFFFFFFFFFF
(1589340268.623299) can1 08FE6E0B#FFFEFFFEFFFEFFFE
(1589340268.643307) can1 08FE6E0B#FFFEFFFEFFFEFFFE
(1589340268.645776) can1 18EBFF0B#0104FF2B030D7E15
(1589340268.657619) can1 00D42580#0605C697C9831353
(1589340268.658538) can1 00D4258F#0605AC002CE8A61A
(1589340268.660056) can1 00FECA8F#04F3AB04090CFFFF
(1589340268.660702) can1 00F18F00#0300FFF1FE0000FF
(1589340268.663425) can1 08FE6E0B#FFFEFFFEFFFEFFFE
(1589340268.683297) can1 08FE6E0B#FFFEFFFEFFFEFFFE
(1589340268.695776) can1 18EBFF0B#0203027E1603027E
(1589340268.703296) can1 08FE6E0B#FFFEFFFEFFFEFFFE
(1589340268.703865) can1 18F0010B#C0FF33FFFF500B3F
(1589340268.704455) can1 18FEBF0B#FFFEFFFFFFFFFFFF
(1589340268.723296) can1 08FE6E0B#FFFEFFFEFFFEFFFE
(1589340268.743296) can1 08FE6E0B#FFFEFFFEFFFEFFFE
(1589340268.745776) can1 18EBFF0B#031703027E180302
(1589340268.763298) can1 08FE6E0B#FFFEFFFEFFFEFFFE
(1589340268.783297) can1 08FE6E0B#FFFEFFFEFFFEFFFE
(1589340268.795785) can1 18EBFF0B#047E2203047E7F02
(1589340268.803295) can1 08FE6E0B#FFFEFFFEFFFEFFFE
(1589340268.803865) can1 18F0010B#C0FF33FFFF500B3F
(1589340268.804496) can1 18FEBF0B#FFFEFFFFFFFFFFFF
(1589340268.823296) can1 08FE6E0B#FFFEFFFEFFFEFFFE
(1589340268.843285) can1 08FE6E0B#FFFEFFFEFFFEFFFE
(1589340268.845765) can1 18EBFF0B#05057E15040700FF
(1589340268.852414) can1 18FECA25#04F35A2A0201FFFF
(1589340268.852946) can1 00F18F25#00FEFEFFFFFFFBFF
(1589340268.853505) can1 00D4258B#0605B8F8FB1770A0
(1589340268.854065) can1 00D48B25#0605B8F8FB1770A0
(1589340268.855946) can1 18FECA8B#00FF00000000FFFF
(1589340268.856852) can1 00F18F0B#00FEFEFFFFFFFBFF
(1589340268.863305) can1 08FE6E0B#FFFEFFFEFFFEFFFE
(1589340268.883304) can1 08FE6E0B#FFFEFFFEFFFEFFFE
(1589340268.903297) can1 08FE6E0B#FFFEFFFEFFFEFFFE
(1589340268.903856) can1 18F0010B#C0FF33FFFF500B3F
(1589340268.904454) can1 18FEBF0B#FFFEFFFFFFFFFFFF
(1589340268.923306) can1 08FE6E0B#FFFEFFFEFFFEFFFE
(1589340268.943314) can1 08FE6E0B#FFFEFFFEFFFEFFFE
(1589340268.963305) can1 08FE6E0B#FFFEFFFEFFFEFFFE
(1589340268.983318) can1 08FE6E0B#FFFEFFFEFFFEFFFE
(1589340269.003285) can1 08FE6E0B#FFFEFFFEFFFEFFFE
(1589340269.003845) can1 18F0010B#C0FF33FFFF500B3F
(1589340269.004445) can1 18FEBF0B#FFFEFFFFFFFFFFFF
(1589340269.023313) can1 08FE6E0B#FFFEFFFEFFFEFFFE
(1589340269.043286) can1 08FE6E0B#FFFEFFFEFFFEFFFE
(1589340269.063341) can1 08FE6E0B#FFFEFFFEFFFEFFFE
(1589340269.083331) can1 08FE6E0B#FFFEFFFEFFFEFFFE
(1589340269.103305) can1 08FE6E0B#FFFEFFFEFFFEFFFE
(1589340269.104216) can1 18F0010B#C0FF33FFFF500B3F
(1589340269.105065) can1 18FEBF0B#FFFEFFFFFFFFFFFF
(1589340269.123305) can1 08FE6E0B#FFFEFFFEFFFEFFFE
(1589340269.143305) can1 08FE6E0B#FFFEFFFEFFFEFFFE
(1589340269.163306) can1 08FE6E0B#FFFEFFFEFFFEFFFE
(1589340269.183335) can1 08FE6E0B#FFFEFFFEFFFEFFFE
(1589340269.203306) can1 08FE6E0B#FFFEFFFEFFFEFFFE
(1589340269.203865) can1 18F0010B#C0FF33FFFF500B3F
(1589340269.204456) can1 18FEBF0B#FFFEFFFFFFFFFFFF
(1589340269.223336) can1 08FE6E0B#FFFEFFFEFFFEFFFE
(1589340269.243305) can1 08FE6E0B#FFFEFFFEFFFEFFFE
(1589340269.263305) can1 08FE6E0B#FFFEFFFEFFFEFFFE
(1589340269.283306) can1 08FE6E0B#FFFEFFFEFFFEFFFE
(1589340269.303306) can1 08FE6E0B#FFFEFFFEFFFEFFFE
(1589340269.303865) can1 18F0010B#C0FF33FFFF500B3F
(1589340269.304455) can1 18FEBF0B#FFFEFFFFFFFFFFFF
(1589340269.323305) can1 08FE6E0B#FFFEFFFEFFFEFFFE
(1589340269.343305) can1 08FE6E0B#FFFEFFFEFFFEFFFE
(1589340269.363314) can1 08FE6E0B#FFFEFFFEFFFEFFFE
(1589340269.383331) can1 08FE6E0B#FFFEFFFEFFFEFFFE
(1589340269.403346) can1 08FE6E0B#FFFEFFFEFFFEFFFE
(1589340269.404185) can1 18F0010B#C0FF33FFFF500B3F
(1589340269.405025) can1 18FEBF0B#FFFEFFFFFFFFFFFF
(1589340269.423305) can1 08FE6E0B#FFFEFFFEFFFEFFFE
(1589340269.443316) can1 08FE6E0B#FFFEFFFEFFFEFFFE
(1589340269.463334) can1 08FE6E0B#FFFEFFFEFFFEFFFE
(1589340269.483307) can1 08FE6E0B#FFFEFFFEFFFEFFFE
(1589340269.503306) can1 08FE6E0B#FFFEFFFEFFFEFFFE
(1589340269.503905) can1 18F0010B#C0FF33FFFF500B3F
(1589340269.504774) can1 18FEBF0B#FFFEFFFFFFFFFFFF
(1589340269.523305) can1 08FE6E0B#FFFEFFFEFFFEFFFE
(1589340269.543332) can1 08FE6E0B#FFFEFFFEFFFEFFFE
(1589340269.563306) can1 08FE6E0B#FFFEFFFEFFFEFFFE
(1589340269.583306) can1 08FE6E0B#FFFEFFFEFFFEFFFE
(1589340269.596105) can1 18ECFF0B#20220005FFCAFE00
(1589340269.603305) can1 08FE6E0B#FFFEFFFEFFFEFFFE
(1589340269.603865) can1 18F0010B#C0FF33FFFF500B3F
(1589340269.604465) can1 18FEBF0B#FFFEFFFFFFFFFFFF
(1589340269.623347) can1 08FE6E0B#FFFEFFFEFFFEFFFE
(1589340269.643305) can1 08FE6E0B#FFFEFFFEFFFEFFFE
(1589340269.645785) can1 18EBFF0B#0104FF2B030D7E15
(1589340269.657575) can1 00D42580#0605C723210026DA
(1589340269.658546) can1 00D4258F#0605C261AD1F7A7D
(1589340269.660024) can1 00FECA8F#04F3AB04090CFFFF
(1589340269.660743) can1 00F18F00#0300FFF1FE0000FF
(1589340269.663384) can1 08FE6E0B#FFFEFFFEFFFEFFFE
(1589340269.683335) can1 08FE6E0B#FFFEFFFEFFFEFFFE
(1589340269.695816) can1 18EBFF0B#0203027E1603027E
(1589340269.703302) can1 08FE6E0B#FFFEFFFEFFFEFFFE
(1589340269.703865) can1 18F0010B#C0FF33FFFF500B3F
(1589340269.704465) can1 18FEBF0B#FFFEFFFFFFFFFFFF
(1589340269.723305) can1 08FE6E0B#FFFEFFFEFFFEFFFE
(1589340269.743305) can1 08FE6E0B#FFFEFFFEFFFEFFFE
(1589340269.745785) can1 18EBFF0B#031703027E180302
(1589340269.763306) can1 08FE6E0B#FFFEFFFEFFFEFFFE
(1589340269.783306) can1 08FE6E0B#FFFEFFFEFFFEFFFE
(1589340269.795825) can1 18EBFF0B#047E2203047E7F02
(1589340269.803305) can1 08FE6E0B#FFFEFFFEFFFEFFFE
(1589340269.804025) can1 18F0010B#C0FF33FFFF500B3F
(1589340269.804865) can1 18FEBF0B#FFFEFFFFFFFFFFFF
(1589340269.823345) can1 08FE6E0B#FFFEFFFEFFFEFFFE
(1589340269.843345) can1 08FE6E0B#FFFEFFFEFFFEFFFE
(1589340269.845785) can1 18EBFF0B#05057E15040700FF
(1589340269.852386) can1 18FECA25#04F35A2A0201FFFF
(1589340269.852945) can1 00F18F25#00FEFEFFFFFFFBFF
(1589340269.853535) can1 00D4258B#0605FC58E4DD0DB7
(1589340269.854055) can1 00D48B25#0605FC58E4DD0DB7
(1589340269.855975) can1 18FECA8B#00FF00000000FFFF
(1589340269.856825) can1 00F18F0B#00FEFEFFFFFFFBFF
(1589340269.863336) can1 08FE6E0B#FFFEFFFEFFFEFFFE
(1589340269.883337) can1 08FE6E0B#FFFEFFFEFFFEFFFE
(1589340269.903316) can1 08FE6E0B#FFFEFFFEFFFEFFFE
(1589340269.903875) can1 18F0010B#C0FF33FFFF500B3F
(1589340269.904475) can1 18FEBF0B#FFFEFFFFFFFFFFFF
(1589340269.923325) can1 08FE6E0B#FFFEFFFEFFFEFFFE
(1589340269.943356) can1 08FE6E0B#FFFEFFFEFFFEFFFE
(1589340269.963331) can1 08FE6E0B#FFFEFFFEFFFEFFFE
(1589340269.983376) can1 08FE6E0B#FFFEFFFEFFFEFFFE
(1589340270.003346) can1 08FE6E0B#FFFEFFFEFFFEFFFE
(1589340270.004255) can1 18F0010B#C0FF33FFFF500B3F
(1589340270.005105) can1 18FEBF0B#FFFEFFFFFFFFFFFF
(1589340270.023305) can1 08FE6E0B#FFFEFFFEFFFEFFFE
(1589340270.043335) can1 08FE6E0B#FFFEFFFEFFFEFFFE
(1589340270.063335) can1 08FE6E0B#FFFEFFFEFFFEFFFE
(1589340270.083346) can1 08FE6E0B#FFFEFFFEFFFEFFFE
(1589340270.103335) can1 08FE6E0B#FFFEFFFEFFFEFFFE
(1589340270.103865) can1 18F0010B#C0FF33FFFF500B3F
(1589340270.104465) can1 18FEBF0B#FFFEFFFFFFFFFFFF
(1589340270.123336) can1 08FE6E0B#FFFEFFFEFFFEFFFE
(1589340270.143345) can1 08FE6E0B#FFFEFFFEFFFEFFFE
(1589340270.163346) can1 08FE6E0B#FFFEFFFEFFFEFFFE
(1589340270.183336) can1 08FE6E0B#FFFEFFFEFFFEFFFE
(1589340270.203336) can1 08FE6E0B#FFFEFFFEFFFEFFFE
(1589340270.203895) can1 18F0010B#C0FF33FFFF500B3F
(1589340270.204465) can1 18FEBF0B#FFFEFFFFFFFFFFFF
(1589340270.223372) can1 08FE6E0B#FFFEFFFEFFFEFFFE
(1589340270.243335) can1 08FE6E0B#FFFEFFFEFFFEFFFE
(1589340270.263371) can1 08FE6E0B#FFFEFFFEFFFEFFFE
(1589340270.283326) can1 08FE6E0B#FFFEFFFEFFFEFFFE
(1589340270.303326) can1 08FE6E0B#FFFEFFFEFFFEFFFE
(1589340270.303996) can1 18F0010B#C0FF33FFFF500B3F
(1589340270.304846) can1 18FEBF0B#FFFEFFFFFFFFFFFF
(1589340270.323326) can1 08FE6E0B#FFFEFFFEFFFEFFFE
(1589340270.343335) can1 08FE6E0B#FFFEFFFEFFFEFFFE
(1589340270.363337) can1 08FE6E0B#FFFEFFFEFFFEFFFE
(1589340270.383336) can1 08FE6E0B#FFFEFFFEFFFEFFFE
(1589340270.403372) can1 08FE6E0B#FFFEFFFEFFFEFFFE
(1589340270.404152) can1 18F0010B#C0FF33FFFF500B3F
(1589340270.405016) can1 18FEBF0B#FFFEFFFFFFFFFFFF
(1589340270.423347) can1 08FE6E0B#FFFEFFFEFFFEFFFE
(1589340270.443358) can1 08FE6E0B#FFFEFFFEFFFEFFFE
(1589340270.463340) can1 08FE6E0B#FFFEFFFEFFFEFFFE
(1589340270.483412) can1 08FE6E0B#FFFEFFFEFFFEFFFE
(1589340270.503360) can1 08FE6E0B#FFFEFFFEFFFEFFFE
(1589340270.503937) can1 18F0010B#C0FF33FFFF500B3F
(1589340270.504494) can1 18FEBF0B#FFFEFFFFFFFFFFFF
(1589340270.523326) can1 08FE6E0B#FFFEFFFEFFFEFFFE
(1589340270.543326) can1 08FE6E0B#FFFEFFFEFFFEFFFE
(1589340270.563374) can1 08FE6E0B#FFFEFFFEFFFEFFFE
(1589340270.583357) can1 08FE6E0B#FFFEFFFEFFFEFFFE
(1589340270.596173) can1 18ECFF0B#20220005FFCAFE00
(1589340270.603337) can1 08FE6E0B#FFFEFFFEFFFEFFFE
(1589340270.603905) can1 18F0010B#C0FF33FFFF500B3F
(1589340270.604505) can1 18FEBF0B#FFFEFFFFFFFFFFFF
(1589340270.623383) can1 08FE6E0B#FFFEFFFEFFFEFFFE
(1589340270.643354) can1 08FE6E0B#FFFEFFFEFFFEFFFE
(1589340270.645806) can1 18EBFF0B#0104FF2B030D7E15
(1589340270.657652) can1 00D42580#06056F25652F59DC
(1589340270.658545) can1 00D4258F#06055C2105B9C95C
(1589340270.660065) can1 00FECA8F#04F3AB04090CFFFF
(1589340270.660776) can1 00F18F00#0300FFF1FE0000FF
(1589340270.663497) can1 08FE6E0B#FFFEFFFEFFFEFFFE
(1589340270.683346) can1 08FE6E0B#FFFEFFFEFFFEFFFE
(1589340270.695825) can1 18EBFF0B#0203027E1603027E
(1589340270.703345) can1 08FE6E0B#FFFEFFFEFFFEFFFE
(1589340270.703905) can1 18F0010B#C0FF33FFFF500B3F
(1589340270.704504) can1 18FEBF0B#FFFEFFFFFFFFFFFF
(1589340270.723345) can1 08FE6E0B#FFFEFFFEFFFEFFFE
(1589340270.743345) can1 08FE6E0B#FFFEFFFEFFFEFFFE
(1589340270.745825) can1 18EBFF0B#031703027E180302
(1589340270.763372) can1 08FE6E0B#FFFEFFFEFFFEFFFE
(1589340270.783346) can1 08FE6E0B#FFFEFFFEFFFEFFFE
(1589340270.795845) can1 18EBFF0B#047E2203047E7F02
(1589340270.803355) can1 08FE6E0B#FFFEFFFEFFFEFFFE
(1589340270.804116) can1 18F0010B#C0FF33FFFF500B3F
(1589340270.804965) can1 18FEBF0B#FFFEFFFFFFFFFFFF
(1589340270.823355) can1 08FE6E0B#FFFEFFFEFFFEFFFE
(1589340270.843357) can1 08FE6E0B#FFFEFFFEFFFEFFFE
(1589340270.845835) can1 18EBFF0B#05057E15040700FF
(1589340270.852365) can1 18FECA25#04F35A2A0201FFFF
(1589340270.852965) can1 00F18F25#00FEFEFFFFFFFBFF
(1589340270.853485) can1 00D4258B#0605B9A203793122
(1589340270.854045) can1 00D48B25#0605B9A203793122
(1589340270.855955) can1 18FECA8B#00FF00000000FFFF
(1589340270.856835) can1 00F18F0B#00FEFEFFFFFFFBFF
(1589340270.863372) can1 08FE6E0B#FFFEFFFEFFFEFFFE
(1589340270.883375) can1 08FE6E0B#FFFEFFFEFFFEFFFE
(1589340270.903346) can1 08FE6E0B#FFFEFFFEFFFEFFFE
(1589340270.904055) can1 18F0010B#C0FF33FFFF500B3F
(1589340270.904895) can1 18FEBF0B#FFFEFFFFFFFFFFFF
(1589340270.923345) can1 08FE6E0B#FFFEFFFEFFFEFFFE
(1589340270.943379) can1 08FE6E0B#FFFEFFFEFFFEFFFE
(1589340270.963372) can1 08FE6E0B#FFFEFFFEFFFEFFFE
(1589340270.983345) can1 08FE6E0B#FFFEFFFEFFFEFFFE
(1589340271.003352) can1 08FE6E0B#FFFEFFFEFFFEFFFE
(1589340271.003886) can1 18F0010B#C0FF33FFFF500B3F
(1589340271.004485) can1 18FEBF0B#FFFEFFFFFFFFFFFF
(1589340271.023346) can1 08FE6E0B#FFFEFFFEFFFEFFFE
(1589340271.043345) can1 08FE6E0B#FFFEFFFEFFFEFFFE
(1589340271.063346) can1 08FE6E0B#FFFEFFFEFFFEFFFE
(1589340271.083346) can1 08FE6E0B#FFFEFFFEFFFEFFFE
(1589340271.103372) can1 08FE6E0B#FFFEFFFEFFFEFFFE
(1589340271.104015) can1 18F0010B#C0FF33FFFF500B3F
(1589340271.104866) can1 18FEBF0B#FFFEFFFFFFFFFFFF
(1589340271.123346) can1 08FE6E0B#FFFEFFFEFFFEFFFE
(1589340271.143345) can1 08FE6E0B#FFFEFFFEFFFEFFFE
(1589340271.163376) can1 08FE6E0B#FFFEFFFEFFFEFFFE
(1589340271.183346) can1 08FE6E0B#FFFEFFFEFFFEFFFE
(1589340271.203379) can1 08FE6E0B#FFFEFFFEFFFEFFFE
(1589340271.204137) can1 18F0010B#C0FF33FFFF500B3F
(1589340271.204976) can1 18FEBF0B#FFFEFFFFFFFFFFFF
(1589340271.223386) can1 08FE6E0B#FFFEFFFEFFFEFFFE
(1589340271.243345) can1 08FE6E0B#FFFEFFFEFFFEFFFE
(1589340271.263379) can1 08FE6E0B#FFFEFFFEFFFEFFFE
(1589340271.283392) can1 08FE6E0B#FFFEFFFEFFFEFFFE
(1589340271.303356) can1 08FE6E0B#FFFEFFFEFFFEFFFE
(1589340271.303925) can1 18F0010B#C0FF33FFFF500B3F
(1589340271.304525) can1 18FEBF0B#FFFEFFFFFFFFFFFF
(1589340271.323365) can1 08FE6E0B#FFFEFFFEFFFEFFFE
(1589340271.343347) can1 08FE6E0B#FFFEFFFEFFFEFFFE
(1589340271.363372) can1 08FE6E0B#FFFEFFFEFFFEFFFE
(1589340271.383372) can1 08FE6E0B#FFFEFFFEFFFEFFFE
(1589340271.403346) can1 08FE6E0B#FFFEFFFEFFFEFFFE
(1589340271.403905) can1 18F0010B#C0FF33FFFF500B3F
(1589340271.404505) can1 18FEBF0B#FFFEFFFFFFFFFFFF
(1589340271.423347) can1 08FE6E0B#FFFEFFFEFFFEFFFE
(1589340271.443396) can1 08FE6E0B#FFFEFFFEFFFEFFFE
(1589340271.463380) can1 08FE6E0B#FFFEFFFEFFFEFFFE
(1589340271.483371) can1 08FE6E0B#FFFEFFFEFFFEFFFE
(1589340271.503367) can1 08FE6E0B#FFFEFFFEFFFEFFFE
(1589340271.504126) can1 18F0010B#C0FF33FFFF500B3F
(1589340271.504965) can1 18FEBF0B#FFFEFFFFFFFFFFFF
(1589340271.523365) can1 08FE6E0B#FFFEFFFEFFFEFFFE
(1589340271.543365) can1 08FE6E0B#FFFEFFFEFFFEFFFE
(1589340271.563345) can1 08FE6E0B#FFFEFFFEFFFEFFFE
(1589340271.583346) can1 08FE6E0B#FFFEFFFEFFFEFFFE
(1589340271.596145) can1 18ECFF0B#20220005FFCAFE00
(1589340271.603387) can1 08FE6E0B#FFFEFFFEFFFEFFFE
(1589340271.604225) can1 18F0010B#C0FF33FFFF500B3F
(1589340271.605096) can1 18FEBF0B#FFFEFFFFFFFFFFFF
(1589340271.623371) can1 08FE6E0B#FFFEFFFEFFFEFFFE
(1589340271.643386) can1 08FE6E0B#FFFEFFFEFFFEFFFE
(1589340271.645866) can1 18EBFF0B#0104FF2B030D7E15
(1589340271.657614) can1 00D42580#0605B6BF46E0AB25
(1589340271.658585) can1 00D4258F#06050EED64C1937D
(1589340271.660063) can1 00FECA8F#04F3AB04090CFFFF
(1589340271.660776) can1 00F18F00#0300FFF1FE0000FF
(1589340271.663426) can1 08FE6E0B#FFFEFFFEFFFEFFFE
(1589340271.683346) can1 08FE6E0B#FFFEFFFEFFFEFFFE
(1589340271.695855) can1 18EBFF0B#0203027E1603027E
(1589340271.703371) can1 08FE6E0B#FFFEFFFEFFFEFFFE
(1589340271.704025) can1 18F0010B#C0FF33FFFF500B3F
(1589340271.704865) can1 18FEBF0B#FFFEFFFFFFFFFFFF
(1589340271.723374) can1 08FE6E0B#FFFEFFFEFFFEFFFE
(1589340271.743375) can1 08FE6E0B#FFFEFFFEFFFEFFFE
(1589340271.745866) can1 18EBFF0B#031703027E180302
(1589340271.763377) can1 08FE6E0B#FFFEFFFEFFFEFFFE
(1589340271.783376) can1 08FE6E0B#FFFEFFFEFFFEFFFE
(1589340271.795865) can1 18EBFF0B#047E2203047E7F02
(1589340271.803375) can1 08FE6E0B#FFFEFFFEFFFEFFFE
(1589340271.803933) can1 18F0010B#C0FF33FFFF500B3F
(1589340271.804503) can1 18FEBF0B#FFFEFFFFFFFFFFFF
(1589340271.823418) can1 08FE6E0B#FFFEFFFEFFFEFFFE
(1589340271.843376) can1 08FE6E0B#FFFEFFFEFFFEFFFE
(1589340271.845866) can1 18EBFF0B#05057E15040700FF
(1589340271.852386) can1 18FECA25#04F35A2A0201FFFF
(1589340271.852944) can1 00F18F25#00FEFEFFFFFFFBFF
(1589340271.853511) can1 00D4258B#06058AAA1BBE8B98
(1589340271.854046) can1 00D48B25#06058AAA1BBE8B98
(1589340271.855965) can1 18FECA8B#00FF00000000FFFF
(1589340271.856846) can1 00F18F0B#00FEFEFFFFFFFBFF
(1589340271.863366) can1 08FE6E0B#FFFEFFFEFFFEFFFE
(1589340271.883413) can1 08FE6E0B#FFFEFFFEFFFEFFFE
(1589340271.903397) can1 08FE6E0B#FFFEFFFEFFFEFFFE
(1589340271.904076) can1 18F0010B#C0FF33FFFF500B3F
(1589340271.904925) can1 18FEBF0B#FFFEFFFFFFFFFFFF
(1589340271.923365) can1 08FE6E0B#FFFEFFFEFFFEFFFE
(1589340271.943381) can1 08FE6E0B#FFFEFFFEFFFEFFFE
(1589340271.963393) can1 08FE6E0B#FFFEFFFEFFFEFFFE
(1589340271.983385) can1 08FE6E0B#FFFEFFFEFFFEFFFE
(1589340272.003386) can1 08FE6E0B#FFFEFFFEFFFEFFFE
(1589340272.004256) can1 18F0010B#C0FF33FFFF500B3F
(1589340272.005096) can1 18FEBF0B#FFFEFFFFFFFFFFFF
(1589340272.023376) can1 08FE6E0B#FFFEFFFEFFFEFFFE
(1589340272.043375) can1 08FE6E0B#FFFEFFFEFFFEFFFE
(1589340272.063379) can1 08FE6E0B#FFFEFFFEFFFEFFFE
(1589340272.083378) can1 08FE6E0B#FFFEFFFEFFFEFFFE
(1589340272.103381) can1 08FE6E0B#FFFEFFFEFFFEFFFE
(1589340272.103985) can1 18F0010B#C0FF33FFFF500B3F
(1589340272.104825) can1 18FEBF0B#FFFEFFFFFFFFFFFF
(1589340272.123376) can1 08FE6E0B#FFFEFFFEFFFEFFFE
(1589340272.143376) can1 08FE6E0B#FFFEFFFEFFFEFFFE
(1589340272.163379) can1 08FE6E0B#FFFEFFFEFFFEFFFE
(1589340272.183387) can1 08FE6E0B#FFFEFFFEFFFEFFFE
(1589340272.203375) can1 08FE6E0B#FFFEFFFEFFFEFFFE
(1589340272.203936) can1 18F0010B#C0FF33FFFF500B3F
(1589340272.204535) can1 18FEBF0B#FFFEFFFFFFFFFFFF
(1589340272.223377) can1 08FE6E0B#FFFEFFFEFFFEFFFE
(1589340272.243385) can1 08FE6E0B#FFFEFFFEFFFEFFFE
(1589340272.263385) can1 08FE6E0B#FFFEFFFEFFFEFFFE
(1589340272.283386) can1 08FE6E0B#FFFEFFFEFFFEFFFE
(1589340272.303386) can1 08FE6E0B#FFFEFFFEFFFEFFFE
(1589340272.303945) can1 18F0010B#C0FF33FFFF500B3F
(1589340272.304545) can1 18FEBF0B#FFFEFFFFFFFFFFFF
(1589340272.323385) can1 08FE6E0B#FFFEFFFEFFFEFFFE
(1589340272.343415) can1 08FE6E0B#FFFEFFFEFFFEFFFE
(1589340272.363419) can1 08FE6E0B#FFFEFFFEFFFEFFFE
(1589340272.383386) can1 08FE6E0B#FFFEFFFEFFFEFFFE
(1589340272.403386) can1 08FE6E0B#FFFEFFFEFFFEFFFE
(1589340272.404065) can1 18F0010B#C0FF33FFFF500B3F
(1589340272.404935) can1 18FEBF0B#FFFEFFFFFFFFFFFF
(1589340272.423385) can1 08FE6E0B#FFFEFFFEFFFEFFFE
(1589340272.443397) can1 08FE6E0B#FFFEFFFEFFFEFFFE
(1589340272.463386) can1 08FE6E0B#FFFEFFFEFFFEFFFE
(1589340272.483386) can1 08FE6E0B#FFFEFFFEFFFEFFFE
(1589340272.503385) can1 08FE6E0B#FFFEFFFEFFFEFFFE
(1589340272.503945) can1 18F0010B#C0FF33FFFF500B3F
(1589340272.504535) can1 18FEBF0B#FFFEFFFFFFFFFFFF
(1589340272.523399) can1 08FE6E0B#FFFEFFFEFFFEFFFE
(1589340272.543391) can1 08FE6E0B#FFFEFFFEFFFEFFFE
(1589340272.563382) can1 08FE6E0B#FFFEFFFEFFFEFFFE
(1589340272.583386) can1 08FE6E0B#FFFEFFFEFFFEFFFE
(1589340272.596185) can1 18ECFF0B#20220005FFCAFE00
(1589340272.603385) can1 08FE6E0B#FFFEFFFEFFFEFFFE
(1589340272.603945) can1 18F0010B#C0FF33FFFF500B3F
(1589340272.604545) can1 18FEBF0B#FFFEFFFFFFFFFFFF
(1589340272.623422) can1 08FE6E0B#FFFEFFFEFFFEFFFE
(1589340272.643385) can1 08FE6E0B#FFFEFFFEFFFEFFFE
(1589340272.645865) can1 18EBFF0B#0104FF2B030D7E15
(1589340272.657586) can1 00D42580#0605B760882F7D28
(1589340272.658584) can1 00D4258F#060573DCF7F423EF
(1589340272.660063) can1 00FECA8F#04F3AB04090CFFFF
(1589340272.660775) can1 00F18F00#0300FFF1FE0000FF
(1589340272.663456) can1 08FE6E0B#FFFEFFFEFFFEFFFE
(1589340272.683387) can1 08FE6E0B#FFFEFFFEFFFEFFFE
(1589340272.695866) can1 18EBFF0B#0203027E1603027E
(1589340272.703385) can1 08FE6E0B#FFFEFFFEFFFEFFFE
(1589340272.704226) can1 18F0010B#C0FF33FFFF500B3F
(1589340272.705095) can1 18FEBF0B#FFFEFFFFFFFFFFFF
(1589340272.723385) can1 08FE6E0B#FFFEFFFEFFFEFFFE
(1589340272.743385) can1 08FE6E0B#FFFEFFFEFFFEFFFE
(1589340272.745865) can1 18EBFF0B#031703027E180302
(1589340272.763416) can1 08FE6E0B#FFFEFFFEFFFEFFFE
(1589340272.783387) can1 08FE6E0B#FFFEFFFEFFFEFFFE
(1589340272.795896) can1 18EBFF0B#047E2203047E7F02
(1589340272.803385) can1 08FE6E0B#FFFEFFFEFFFEFFFE
(1589340272.804056) can1 18F0010B#C0FF33FFFF500B3F
(1589340272.804899) can1 18FEBF0B#FFFEFFFFFFFFFFFF
(1589340272.823386) can1 08FE6E0B#FFFEFFFEFFFEFFFE
(1589340272.843385) can1 08FE6E0B#FFFEFFFEFFFEFFFE
(1589340272.845865) can1 18EBFF0B#05057E15040700FF
(1589340272.852385) can1 18FECA25#04F35A2A0201FFFF
(1589340272.852945) can1 00F18F25#00FEFEFFFFFFFBFF
(1589340272.853505) can1 00D4258B#06053E59A64A0431
(1589340272.854065) can1 00D48B25#06053E59A64A0431
(1589340272.855945) can1 18FECA8B#00FF00000000FFFF
(1589340272.856825) can1 00F18F0B#00FEFEFFFFFFFBFF
(1589340272.863384) can1 08FE6E0B#FFFEFFFEFFFEFFFE
(1589340272.883410) can1 08FE6E0B#FFFEFFFEFFFEFFFE
(1589340272.903417) can1 08FE6E0B#FFFEFFFEFFFEFFFE
(1589340272.903945) can1 18F0010B#C0FF33FFFF500B3F
(1589340272.904545) can1 18FEBF0B#FFFEFFFFFFFFFFFF
(1589340272.923414) can1 08FE6E0B#FFFEFFFEFFFEFFFE
(1589340272.943426) can1 08FE6E0B#FFFEFFFEFFFEFFFE
(1589340272.963418) can1 08FE6E0B#FFFEFFFEFFFEFFFE
(1589340272.983387) can1 08FE6E0B#FFFEFFFEFFFEFFFE
(1589340273.003385) can1 08FE6E0B#FFFEFFFEFFFEFFFE
(1589340273.004305) can1 18F0010B#C0FF33FFFF500B3F
(1589340273.005174) can1 18FEBF0B#FFFEFFFFFFFFFFFF
(1589340273.023386) can1 08FE6E0B#FFFEFFFEFFFEFFFE
(1589340273.043385) can1 08FE6E0B#FFFEFFFEFFFEFFFE
(1589340273.063384) can1 08FE6E0B#FFFEFFFEFFFEFFFE
(1589340273.083451) can1 08FE6E0B#FFFEFFFEFFFEFFFE
(1589340273.103385) can1 08FE6E0B#FFFEFFFEFFFEFFFE
(1589340273.103945) can1 18F0010B#C0FF33FFFF500B3F
(1589340273.104544) can1 18FEBF0B#FFFEFFFFFFFFFFFF
(1589340273.123385) can1 08FE6E0B#FFFEFFFEFFFEFFFE
(1589340273.143386) can1 08FE6E0B#FFFEFFFEFFFEFFFE
(1589340273.163383) can1 08FE6E0B#FFFEFFFEFFFEFFFE
(1589340273.183386) can1 08FE6E0B#FFFEFFFEFFFEFFFE
(1589340273.203417) can1 08FE6E0B#FFFEFFFEFFFEFFFE
(1589340273.203975) can1 18F0010B#C0FF33FFFF500B3F
(1589340273.204576) can1 18FEBF0B#FFFEFFFFFFFFFFFF
(1589340273.223386) can1 08FE6E0B#FFFEFFFEFFFEFFFE
(1589340273.243425) can1 08FE6E0B#FFFEFFFEFFFEFFFE
(1589340273.263383) can1 08FE6E0B#FFFEFFFEFFFEFFFE
(1589340273.283386) can1 08FE6E0B#FFFEFFFEFFFEFFFE
(1589340273.303416) can1 08FE6E0B#FFFEFFFEFFFEFFFE
(1589340273.303986) can1 18F0010B#C0FF33FFFF500B3F
(1589340273.304585) can1 18FEBF0B#FFFEFFFFFFFFFFFF
(1589340273.323415) can1 08FE6E0B#FFFEFFFEFFFEFFFE
(1589340273.343385) can1 08FE6E0B#FFFEFFFEFFFEFFFE
(1589340273.363416) can1 08FE6E0B#FFFEFFFEFFFEFFFE
(1589340273.383406) can1 08FE6E0B#FFFEFFFEFFFEFFFE
(1589340273.403401) can1 08FE6E0B#FFFEFFFEFFFEFFFE
(1589340273.403965) can1 18F0010B#C0FF33FFFF500B3F
(1589340273.404555) can1 18FEBF0B#FFFEFFFFFFFFFFFF
(1589340273.423436) can1 08FE6E0B#FFFEFFFEFFFEFFFE
(1589340273.443405) can1 08FE6E0B#FFFEFFFEFFFEFFFE
(1589340273.463414) can1 08FE6E0B#FFFEFFFEFFFEFFFE
(1589340273.483417) can1 08FE6E0B#FFFEFFFEFFFEFFFE
(1589340273.503416) can1 08FE6E0B#FFFEFFFEFFFEFFFE
(1589340273.504225) can1 18F0010B#C0FF33FFFF500B3F
(1589340273.505064) can1 18FEBF0B#FFFEFFFFFFFFFFFF
(1589340273.523416) can1 08FE6E0B#FFFEFFFEFFFEFFFE
(1589340273.543417) can1 08FE6E0B#FFFEFFFEFFFEFFFE
(1589340273.563416) can1 08FE6E0B#FFFEFFFEFFFEFFFE
(1589340273.583407) can1 08FE6E0B#FFFEFFFEFFFEFFFE
(1589340273.596216) can1 18ECFF0B#20220005FFCAFE00
(1589340273.603416) can1 08FE6E0B#FFFEFFFEFFFEFFFE
(1589340273.603975) can1 18F0010B#C0FF33FFFF500B3F
(1589340273.604572) can1 18FEBF0B#FFFEFFFFFFFFFFFF
(1589340273.623418) can1 08FE6E0B#FFFEFFFEFFFEFFFE
(1589340273.643417) can1 08FE6E0B#FFFEFFFEFFFEFFFE
(1589340273.645896) can1 18EBFF0B#0104FF2B030D7E15
(1589340273.657585) can1 00D42580#06059717B43E2069
(1589340273.658585) can1 00D4258F#060584581DF47C82
(1589340273.660095) can1 00FECA8F#04F3AB04090CFFFF
(1589340273.660783) can1 00F18F00#0300FFF1FE0000FF
(1589340273.663493) can1 08FE6E0B#FFFEFFFEFFFEFFFE
(1589340273.683419) can1 08FE6E0B#FFFEFFFEFFFEFFFE
(1589340273.695906) can1 18EBFF0B#0203027E1603027E
(1589340273.703426) can1 08FE6E0B#FFFEFFFEFFFEFFFE
(1589340273.704176) can1 18F0010B#C0FF33FFFF500B3F
(1589340273.705025) can1 18FEBF0B#FFFEFFFFFFFFFFFF
(1589340273.723425) can1 08FE6E0B#FFFEFFFEFFFEFFFE
(1589340273.743425) can1 08FE6E0B#FFFEFFFEFFFEFFFE
(1589340273.745896) can1 18EBFF0B#031703027E180302
(1589340273.763418) can1 08FE6E0B#FFFEFFFEFFFEFFFE
(1589340273.783451) can1 08FE6E0B#FFFEFFFEFFFEFFFE
(1589340273.795946) can1 18EBFF0B#047E2203047E7F02
(1589340273.803426) can1 08FE6E0B#FFFEFFFEFFFEFFFE
(1589340273.803985) can1 18F0010B#C0FF33FFFF500B3F
(1589340273.804586) can1 18FEBF0B#FFFEFFFFFFFFFFFF
(1589340273.823455) can1 08FE6E0B#FFFEFFFEFFFEFFFE
(1589340273.843426) can1 08FE6E0B#FFFEFFFEFFFEFFFE
(1589340273.845906) can1 18EBFF0B#05057E15040700FF
(1589340273.852385) can1 18FECA25#04F35A2A0201FFFF
(1589340273.852945) can1 00F18F25#00FEFEFFFFFFFBFF
(1589340273.853504) can1 00D4258B#0605A90982978BF4
(1589340273.854066) can1 00D48B25#0605A90982978BF4
(1589340273.855975) can1 18FECA8B#00FF00000000FFFF
(1589340273.856825) can1 00F18F0B#00FEFEFFFFFFFBFF
(1589340273.863425) can1 08FE6E0B#FFFEFFFEFFFEFFFE
(1589340273.883471) can1 08FE6E0B#FFFEFFFEFFFEFFFE
(1589340273.903451) can1 08FE6E0B#FFFEFFFEFFFEFFFE
(1589340273.903985) can1 18F0010B#C0FF33FFFF500B3F
(1589340273.904576) can1 18FEBF0B#FFFEFFFFFFFFFFFF
(1589340273.923425) can1 08FE6E0B#FFFEFFFEFFFEFFFE
(1589340273.943425) can1 08FE6E0B#FFFEFFFEFFFEFFFE
(1589340273.963424) can1 08FE6E0B#FFFEFFFEFFFEFFFE
(1589340273.983452) can1 08FE6E0B#FFFEFFFEFFFEFFFE
(1589340274.003426) can1 08FE6E0B#FFFEFFFEFFFEFFFE
(1589340274.003985) can1 18F0010B#C0FF33FFFF500B3F
(1589340274.004576) can1 18FEBF0B#FFFEFFFFFFFFFFFF
(1589340274.023425) can1 08FE6E0B#FFFEFFFEFFFEFFFE
(1589340274.043425) can1 08FE6E0B#FFFEFFFEFFFEFFFE
(1589340274.063424) can1 08FE6E0B#FFFEFFFEFFFEFFFE
(1589340274.083427) can1 08FE6E0B#FFFEFFFEFFFEFFFE
(1589340274.103425) can1 08FE6E0B#FFFEFFFEFFFEFFFE
(1589340274.103985) can1 18F0010B#C0FF33FFFF500B3F
(1589340274.104575) can1 18FEBF0B#FFFEFFFFFFFFFFFF
(1589340274.123425) can1 08FE6E0B#FFFEFFFEFFFEFFFE
(1589340274.143425) can1 08FE6E0B#FFFEFFFEFFFEFFFE
(1589340274.163424) can1 08FE6E0B#FFFEFFFEFFFEFFFE
(1589340274.183426) can1 08FE6E0B#FFFEFFFEFFFEFFFE
(1589340274.203426) can1 08FE6E0B#FFFEFFFEFFFEFFFE
(1589340274.203985) can1 18F0010B#C0FF33FFFF500B3F
(1589340274.204575) can1 18FEBF0B#FFFEFFFFFFFFFFFF
(1589340274.223425) can1 08FE6E0B#FFFEFFFEFFFEFFFE
(1589340274.243425) can1 08FE6E0B#FFFEFFFEFFFEFFFE
(1589340274.263435) can1 08FE6E0B#FFFEFFFEFFFEFFFE
(1589340274.283426) can1 08FE6E0B#FFFEFFFEFFFEFFFE
(1589340274.303425) can1 08FE6E0B#FFFEFFFEFFFEFFFE
(1589340274.304265) can1 18F0010B#C0FF33FFFF500B3F
(1589340274.305135) can1 18FEBF0B#FFFEFFFFFFFFFFFF
(1589340274.323425) can1 08FE6E0B#FFFEFFFEFFFEFFFE
(1589340274.343423) can1 08FE6E0B#FFFEFFFEFFFEFFFE
(1589340274.363423) can1 08FE6E0B#FFFEFFFEFFFEFFFE
(1589340274.383451) can1 08FE6E0B#FFFEFFFEFFFEFFFE
(1589340274.403426) can1 08FE6E0B#FFFEFFFEFFFEFFFE
(1589340274.403985) can1 18F0010B#C0FF33FFFF500B3F
(1589340274.404582) can1 18FEBF0B#FFFEFFFFFFFFFFFF
(1589340274.423425) can1 08FE6E0B#FFFEFFFEFFFEFFFE
(1589340274.443425) can1 08FE6E0B#FFFEFFFEFFFEFFFE
(1589340274.463425) can1 08FE6E0B#FFFEFFFEFFFEFFFE
(1589340274.483427) can1 08FE6E0B#FFFEFFFEFFFEFFFE
(1589340274.503453) can1 08FE6E0B#FFFEFFFEFFFEFFFE
(1589340274.504017) can1 18F0010B#C0FF33FFFF500B3F
(1589340274.504586) can1 18FEBF0B#FFFEFFFFFFFFFFFF
(1589340274.523426) can1 08FE6E0B#FFFEFFFEFFFEFFFE
(1589340274.543425) can1 08FE6E0B#FFFEFFFEFFFEFFFE
(1589340274.563426) can1 08FE6E0B#FFFEFFFEFFFEFFFE
(1589340274.583439) can1 08FE6E0B#FFFEFFFEFFFEFFFE
(1589340274.596237) can1 18ECFF0B#20220005FFCAFE00
(1589340274.603445) can1 08FE6E0B#FFFEFFFEFFFEFFFE
(1589340274.603996) can1 18F0010B#C0FF33FFFF500B3F
(1589340274.604595) can1 18FEBF0B#FFFEFFFFFFFFFFFF
(1589340274.623437) can1 08FE6E0B#FFFEFFFEFFFEFFFE
(1589340274.643445) can1 08FE6E0B#FFFEFFFEFFFEFFFE
(1589340274.645926) can1 18EBFF0B#0104FF2B030D7E15
(1589340274.657637) can1 00D42580#06051E71EFF01F35
(1589340274.658584) can1 00D4258F#0605D34F9DD0EE15
(1589340274.660096) can1 00FECA8F#04F3AB04090CFFFF
(1589340274.660782) can1 00F18F00#0300FFF1FE0000FF
(1589340274.663523) can1 08FE6E0B#FFFEFFFEFFFEFFFE
(1589340274.683451) can1 08FE6E0B#FFFEFFFEFFFEFFFE
(1589340274.695956) can1 18EBFF0B#0203027E1603027E
(1589340274.703447) can1 08FE6E0B#FFFEFFFEFFFEFFFE
(1589340274.704165) can1 18F0010B#C0FF33FFFF500B3F
(1589340274.705035) can1 18FEBF0B#FFFEFFFFFFFFFFFF
(1589340274.723445) can1 08FE6E0B#FFFEFFFEFFFEFFFE
(1589340274.743476) can1 08FE6E0B#FFFEFFFEFFFEFFFE
(1589340274.745917) can1 18EBFF0B#031703027E180302
(1589340274.763458) can1 08FE6E0B#FFFEFFFEFFFEFFFE
(1589340274.783451) can1 08FE6E0B#FFFEFFFEFFFEFFFE
(1589340274.795936) can1 18EBFF0B#047E2203047E7F02
(1589340274.803425) can1 08FE6E0B#FFFEFFFEFFFEFFFE
(1589340274.804375) can1 18F0010B#C0FF33FFFF500B3F
(1589340274.805256) can1 18FEBF0B#FFFEFFFFFFFFFFFF
(1589340274.823465) can1 08FE6E0B#FFFEFFFEFFFEFFFE
(1589340274.843456) can1 08FE6E0B#FFFEFFFEFFFEFFFE
(1589340274.845905) can1 18EBFF0B#05057E15040700FF
(1589340274.852385) can1 18FECA25#04F35A2A0201FFFF
(1589340274.852944) can1 00F18F25#00FEFEFFFFFFFBFF
(1589340274.853505) can1 00D4258B#060568F1E3351CDF
(1589340274.854067) can1 00D48B25#060568F1E3351CDF
(1589340274.855976) can1 18FECA8B#00FF00000000FFFF
(1589340274.856825) can1 00F18F0B#00FEFEFFFFFFFBFF
(1589340274.863456) can1 08FE6E0B#FFFEFFFEFFFEFFFE
(1589340274.883452) can1 08FE6E0B#FFFEFFFEFFFEFFFE
(1589340274.903467) can1 08FE6E0B#FFFEFFFEFFFEFFFE
(1589340274.904105) can1 18F0010B#C0FF33FFFF500B3F
(1589340274.904985) can1 18FEBF0B#FFFEFFFFFFFFFFFF
(1589340274.923493) can1 08FE6E0B#FFFEFFFEFFFEFFFE
(1589340274.943456) can1 08FE6E0B#FFFEFFFEFFFEFFFE
(1589340274.963453) can1 08FE6E0B#FFFEFFFEFFFEFFFE
(1589340274.983426) can1 08FE6E0B#FFFEFFFEFFFEFFFE
(1589340275.003472) can1 08FE6E0B#FFFEFFFEFFFEFFFE
(1589340275.004007) can1 18F0010B#C0FF33FFFF500B3F
(1589340275.004605) can1 18FEBF0B#FFFEFFFFFFFFFFFF
(1589340275.023446) can1 08FE6E0B#FFFEFFFEFFFEFFFE
(1589340275.043445) can1 08FE6E0B#FFFEFFFEFFFEFFFE
(1589340275.063454) can1 08FE6E0B#FFFEFFFEFFFEFFFE
(1589340275.083457) can1 08FE6E0B#FFFEFFFEFFFEFFFE
(1589340275.103451) can1 08FE6E0B#FFFEFFFEFFFEFFFE
(1589340275.103986) can1 18F0010B#C0FF33FFFF500B3F
(1589340275.104585) can1 18FEBF0B#FFFEFFFFFFFFFFFF
(1589340275.123456) can1 08FE6E0B#FFFEFFFEFFFEFFFE
(1589340275.143496) can1 08FE6E0B#FFFEFFFEFFFEFFFE
(1589340275.163464) can1 08FE6E0B#FFFEFFFEFFFEFFFE
(1589340275.183456) can1 08FE6E0B#FFFEFFFEFFFEFFFE
(1589340275.203455) can1 08FE6E0B#FFFEFFFEFFFEFFFE
(1589340275.204015) can1 18F0010B#C0FF33FFFF500B3F
(1589340275.204585) can1 18FEBF0B#FFFEFFFFFFFFFFFF
(1589340275.223465) can1 08FE6E0B#FFFEFFFEFFFEFFFE
(1589340275.243465) can1 08FE6E0B#FFFEFFFEFFFEFFFE
(1589340275.263456) can1 08FE6E0B#FFFEFFFEFFFEFFFE
(1589340275.283447) can1 08FE6E0B#FFFEFFFEFFFEFFFE
(1589340275.303445) can1 08FE6E0B#FFFEFFFEFFFEFFFE
(1589340275.304006) can1 18F0010B#C0FF33FFFF500B3F
(1589340275.304606) can1 18FEBF0B#FFFEFFFFFFFFFFFF
(1589340275.323458) can1 08FE6E0B#FFFEFFFEFFFEFFFE
(1589340275.343460) can1 08FE6E0B#FFFEFFFEFFFEFFFE
(1589340275.363457) can1 08FE6E0B#FFFEFFFEFFFEFFFE
(1589340275.383456) can1 08FE6E0B#FFFEFFFEFFFEFFFE
(1589340275.403456) can1 08FE6E0B#FFFEFFFEFFFEFFFE
(1589340275.404016) can1 18F0010B#C0FF33FFFF500B3F
(1589340275.404585) can1 18FEBF0B#FFFEFFFFFFFFFFFF
(1589340275.423475) can1 08FE6E0B#FFFEFFFEFFFEFFFE
(1589340275.443456) can1 08FE6E0B#FFFEFFFEFFFEFFFE
(1589340275.463458) can1 08FE6E0B#FFFEFFFEFFFEFFFE
(1589340275.483492) can1 08FE6E0B#FFFEFFFEFFFEFFFE
(1589340275.503456) can1 08FE6E0B#FFFEFFFEFFFEFFFE
(1589340275.504015) can1 18F0010B#C0FF33FFFF500B3F
(1589340275.504585) can1 18FEBF0B#FFFEFFFFFFFFFFFF
(1589340275.523455) can1 08FE6E0B#FFFEFFFEFFFEFFFE
(1589340275.543471) can1 08FE6E0B#FFFEFFFEFFFEFFFE
(1589340275.563466) can1 08FE6E0B#FFFEFFFEFFFEFFFE
(1589340275.583466) can1 08FE6E0B#FFFEFFFEFFFEFFFE
(1589340275.596258) can1 18ECFF0B#20220005FFCAFE00
(1589340275.603466) can1 08FE6E0B#FFFEFFFEFFFEFFFE
(1589340275.604025) can1 18F0010B#C0FF33FFFF500B3F
(1589340275.604614) can1 18FEBF0B#FFFEFFFFFFFFFFFF
(1589340275.623492) can1 08FE6E0B#FFFEFFFEFFFEFFFE
(1589340275.643493) can1 08FE6E0B#FFFEFFFEFFFEFFFE
(1589340275.645946) can1 18EBFF0B#0104FF2B030D7E15
(1589340275.657716) can1 00D42580#0605DB4418302A3D
(1589340275.658619) can1 00D4258F#0605F56694518886
(1589340275.660115) can1 00FECA8F#04F3AB04090CFFFF
(1589340275.660804) can1 00F18F00#0300FFF1FE0000FF
(1589340275.663545) can1 08FE6E0B#FFFEFFFEFFFEFFFE
(1589340275.683501) can1 08FE6E0B#FFFEFFFEFFFEFFFE
(1589340275.695971) can1 18EBFF0B#0203027E1603027E
(1589340275.703466) can1 08FE6E0B#FFFEFFFEFFFEFFFE
(1589340275.704026) can1 18F0010B#C0FF33FFFF500B3F
(1589340275.704615) can1 18FEBF0B#FFFEFFFFFFFFFFFF
(1589340275.723465) can1 08FE6E0B#FFFEFFFEFFFEFFFE
(1589340275.743465) can1 08FE6E0B#FFFEFFFEFFFEFFFE
(1589340275.745945) can1 18EBFF0B#031703027E180302
(1589340275.763491) can1 08FE6E0B#FFFEFFFEFFFEFFFE
(1589340275.783491) can1 08FE6E0B#FFFEFFFEFFFEFFFE
(1589340275.795945) can1 18EBFF0B#047E2203047E7F02
(1589340275.803466) can1 08FE6E0B#FFFEFFFEFFFEFFFE
(1589340275.804065) can1 18F0010B#C0FF33FFFF500B3F
(1589340275.804934) can1 18FEBF0B#FFFEFFFFFFFFFFFF
(1589340275.823465) can1 08FE6E0B#FFFEFFFEFFFEFFFE
(1589340275.843492) can1 08FE6E0B#FFFEFFFEFFFEFFFE
(1589340275.845945) can1 18EBFF0B#05057E15040700FF
(1589340275.852386) can1 18FECA25#04F35A2A0201FFFF
(1589340275.852975) can1 00F18F25#00FEFEFFFFFFFBFF
(1589340275.853505) can1 00D4258B#0605C772E8736614
(1589340275.854065) can1 00D48B25#0605C772E8736614
(1589340275.855945) can1 18FECA8B#00FF00000000FFFF
(1589340275.856856) can1 00F18F0B#00FEFEFFFFFFFBFF
(1589340275.863465) can1 08FE6E0B#FFFEFFFEFFFEFFFE
(1589340275.883466) can1 08FE6E0B#FFFEFFFEFFFEFFFE
(1589340275.903466) can1 08FE6E0B#FFFEFFFEFFFEFFFE
(1589340275.904025) can1 18F0010B#C0FF33FFFF500B3F
(1589340275.904625) can1 18FEBF0B#FFFEFFFFFFFFFFFF
(1589340275.923496) can1 08FE6E0B#FFFEFFFEFFFEFFFE
(1589340275.943505) can1 08FE6E0B#FFFEFFFEFFFEFFFE
(1589340275.963464) can1 08FE6E0B#FFFEFFFEFFFEFFFE
(1589340275.983477) can1 08FE6E0B#FFFEFFFEFFFEFFFE
(1589340276.003477) can1 08FE6E0B#FFFEFFFEFFFEFFFE
(1589340276.004035) can1 18F0010B#C0FF33FFFF500B3F
(1589340276.004606) can1 18FEBF0B#FFFEFFFFFFFFFFFF
(1589340276.023476) can1 08FE6E0B#FFFEFFFEFFFEFFFE
(1589340276.043485) can1 08FE6E0B#FFFEFFFEFFFEFFFE
(1589340276.063465) can1 08FE6E0B#FFFEFFFEFFFEFFFE
(1589340276.083498) can1 08FE6E0B#FFFEFFFEFFFEFFFE
(1589340276.103491) can1 08FE6E0B#FFFEFFFEFFFEFFFE
(1589340276.104025) can1 18F0010B#C0FF33FFFF500B3F
(1589340276.104625) can1 18FEBF0B#FFFEFFFFFFFFFFFF
(1589340276.123486) can1 08FE6E0B#FFFEFFFEFFFEFFFE
(1589340276.143466) can1 08FE6E0B#FFFEFFFEFFFEFFFE
(1589340276.163463) can1 08FE6E0B#FFFEFFFEFFFEFFFE
(1589340276.183507) can1 08FE6E0B#FFFEFFFEFFFEFFFE
(1589340276.203466) can1 08FE6E0B#FFFEFFFEFFFEFFFE
(1589340276.204185) can1 18F0010B#C0FF33FFFF500B3F
(1589340276.205025) can1 18FEBF0B#FFFEFFFFFFFFFFFF
(1589340276.223535) can1 08FE6E0B#FFFEFFFEFFFEFFFE
(1589340276.243466) can1 08FE6E0B#FFFEFFFEFFFEFFFE
(1589340276.263466) can1 08FE6E0B#FFFEFFFEFFFEFFFE
(1589340276.283491) can1 08FE6E0B#FFFEFFFEFFFEFFFE
(1589340276.303477) can1 08FE6E0B#FFFEFFFEFFFEFFFE
(1589340276.304037) can1 18F0010B#C0FF33FFFF500B3F
(1589340276.304604) can1 18FEBF0B#FFFEFFFFFFFFFFFF
(1589340276.323465) can1 08FE6E0B#FFFEFFFEFFFEFFFE
(1589340276.343493) can1 08FE6E0B#FFFEFFFEFFFEFFFE
(1589340276.363466) can1 08FE6E0B#FFFEFFFEFFFEFFFE
(1589340276.383498) can1 08FE6E0B#FFFEFFFEFFFEFFFE
(1589340276.403465) can1 08FE6E0B#FFFEFFFEFFFEFFFE
(1589340276.404025) can1 18F0010B#C0FF33FFFF500B3F
(1589340276.404626) can1 18FEBF0B#FFFEFFFFFFFFFFFF
(1589340276.423496) can1 08FE6E0B#FFFEFFFEFFFEFFFE
(1589340276.443466) can1 08FE6E0B#FFFEFFFEFFFEFFFE
(1589340276.463497) can1 08FE6E0B#FFFEFFFEFFFEFFFE
(1589340276.483498) can1 08FE6E0B#FFFEFFFEFFFEFFFE
(1589340276.503496) can1 08FE6E0B#FFFEFFFEFFFEFFFE
(1589340276.504053) can1 18F0010B#C0FF33FFFF500B3F
(1589340276.504625) can1 18FEBF0B#FFFEFFFFFFFFFFFF
(1589340276.505024) can1 18EAFF0B#E5FE00
(1589340276.523495) can1 08FE6E0B#FFFEFFFEFFFEFFFE
(1589340276.543495) can1 08FE6E0B#FFFEFFFEFFFEFFFE
(1589340276.563467) can1 08FE6E0B#FFFEFFFEFFFEFFFE
(1589340276.583497) can1 08FE6E0B#FFFEFFFEFFFEFFFE
(1589340276.596296) can1 18ECFF0B#20220005FFCAFE00
(1589340276.603517) can1 08FE6E0B#FFFEFFFEFFFEFFFE
(1589340276.604126) can1 18F0010B#C0FF33FFFF500B3F
(1589340276.605005) can1 18FEBF0B#FFFEFFFFFFFFFFFF
(1589340276.623515) can1 08FE6E0B#FFFEFFFEFFFEFFFE
(1589340276.643486) can1 08FE6E0B#FFFEFFFEFFFEFFFE
(1589340276.645965) can1 18EBFF0B#0104FF2B030D7E15
(1589340276.657605) can1 00D42580#0605C43E2BBCA32E
(1589340276.658624) can1 00D4258F#060547CD2DB0721F
(1589340276.660103) can1 00FECA8F#04F3AB04090CFFFF
(1589340276.660823) can1 00F18F00#0300FFF1FE0000FF
(1589340276.663656) can1 08FE6E0B#FFFEFFFEFFFEFFFE
(1589340276.683497) can1 08FE6E0B#FFFEFFFEFFFEFFFE
(1589340276.695975) can1 18EBFF0B#0203027E1603027E
(1589340276.703495) can1 08FE6E0B#FFFEFFFEFFFEFFFE
(1589340276.704415) can1 18F0010B#C0FF33FFFF500B3F
(1589340276.705265) can1 18FEBF0B#FFFEFFFFFFFFFFFF
(1589340276.723506) can1 08FE6E0B#FFFEFFFEFFFEFFFE
(1589340276.743506) can1 08FE6E0B#FFFEFFFEFFFEFFFE
(1589340276.745973) can1 18EBFF0B#031703027E180302
(1589340276.763465) can1 08FE6E0B#FFFEFFFEFFFEFFFE
(1589340276.783492) can1 08FE6E0B#FFFEFFFEFFFEFFFE
(1589340276.795985) can1 18EBFF0B#047E2203047E7F02
(1589340276.803505) can1 08FE6E0B#FFFEFFFEFFFEFFFE
(1589340276.804225) can1 18F0010B#C0FF33FFFF500B3F
(1589340276.805096) can1 18FEBF0B#FFFEFFFFFFFFFFFF
(1589340276.823506) can1 08FE6E0B#FFFEFFFEFFFEFFFE
(1589340276.843496) can1 08FE6E0B#FFFEFFFEFFFEFFFE
(1589340276.845976) can1 18EBFF0B#05057E15040700FF
(1589340276.852385) can1 18FECA25#04F35A2A0201FFFF
(1589340276.852975) can1 00F18F25#00FEFEFFFFFFFBFF
(1589340276.853505) can1 00D4258B#0605D34CD4D85942
(1589340276.854056) can1 00D48B25#0605D34CD4D85942
(1589340276.855973) can1 18FECA8B#00FF00000000FFFF
(1589340276.856825) can1 00F18F0B#00FEFEFFFFFFFBFF
(1589340276.863499) can1 08FE6E0B#FFFEFFFEFFFEFFFE
(1589340276.883532) can1 08FE6E0B#FFFEFFFEFFFEFFFE
(1589340276.903539) can1 08FE6E0B#FFFEFFFEFFFEFFFE
(1589340276.904064) can1 18F0010B#C0FF33FFFF500B3F
(1589340276.904662) can1 18FEBF0B#FFFEFFFFFFFFFFFF
(1589340276.923498) can1 08FE6E0B#FFFEFFFEFFFEFFFE
(1589340276.943506) can1 08FE6E0B#FFFEFFFEFFFEFFFE
(1589340276.963496) can1 08FE6E0B#FFFEFFFEFFFEFFFE
(1589340276.983532) can1 08FE6E0B#FFFEFFFEFFFEFFFE
(1589340277.003507) can1 08FE6E0B#FFFEFFFEFFFEFFFE
(1589340277.004345) can1 18F0010B#C0FF33FFFF500B3F
(1589340277.005185) can1 18FEBF0B#FFFEFFFFFFFFFFFF
(1589340277.023496) can1 08FE6E0B#FFFEFFFEFFFEFFFE
(1589340277.043496) can1 08FE6E0B#FFFEFFFEFFFEFFFE
(1589340277.063503) can1 08FE6E0B#FFFEFFFEFFFEFFFE
(1589340277.083512) can1 08FE6E0B#FFFEFFFEFFFEFFFE
(1589340277.103485) can1 08FE6E0B#FFFEFFFEFFFEFFFE
(1589340277.104045) can1 18F0010B#C0FF33FFFF500B3F
(1589340277.104645) can1 18FEBF0B#FFFEFFFFFFFFFFFF
(1589340277.123486) can1 08FE6E0B#FFFEFFFEFFFEFFFE
(1589340277.143485) can1 08FE6E0B#FFFEFFFEFFFEFFFE
(1589340277.163504) can1 08FE6E0B#FFFEFFFEFFFEFFFE
(1589340277.183506) can1 08FE6E0B#FFFEFFFEFFFEFFFE
(1589340277.203506) can1 08FE6E0B#FFFEFFFEFFFEFFFE
(1589340277.204056) can1 18F0010B#C0FF33FFFF500B3F
(1589340277.204656) can1 18FEBF0B#FFFEFFFFFFFFFFFF
(1589340277.223505) can1 08FE6E0B#FFFEFFFEFFFEFFFE
(1589340277.243505) can1 08FE6E0B#FFFEFFFEFFFEFFFE
(1589340277.263503) can1 08FE6E0B#FFFEFFFEFFFEFFFE
(1589340277.283507) can1 08FE6E0B#FFFEFFFEFFFEFFFE
(1589340277.303505) can1 08FE6E0B#FFFEFFFEFFFEFFFE
(1589340277.304385) can1 18F0010B#C0FF33FFFF500B3F
(1589340277.305265) can1 18FEBF0B#FFFEFFFFFFFFFFFF
(1589340277.323505) can1 08FE6E0B#FFFEFFFEFFFEFFFE
(1589340277.343505) can1 08FE6E0B#FFFEFFFEFFFEFFFE
(1589340277.363505) can1 08FE6E0B#FFFEFFFEFFFEFFFE
(1589340277.383506) can1 08FE6E0B#FFFEFFFEFFFEFFFE
(1589340277.403506) can1 08FE6E0B#FFFEFFFEFFFEFFFE
(1589340277.404145) can1 18F0010B#C0FF33FFFF500B3F
(1589340277.404985) can1 18FEBF0B#FFFEFFFFFFFFFFFF
(1589340277.423506) can1 08FE6E0B#FFFEFFFEFFFEFFFE
(1589340277.443505) can1 08FE6E0B#FFFEFFFEFFFEFFFE
(1589340277.463504) can1 08FE6E0B#FFFEFFFEFFFEFFFE
(1589340277.483532) can1 08FE6E0B#FFFEFFFEFFFEFFFE
(1589340277.503532) can1 08FE6E0B#FFFEFFFEFFFEFFFE
(1589340277.504265) can1 18F0010B#C0FF33FFFF500B3F
(1589340277.505159) can1 18FEBF0B#FFFEFFFFFFFFFFFF
(1589340277.523486) can1 08FE6E0B#FFFEFFFEFFFEFFFE
(1589340277.543515) can1 08FE6E0B#FFFEFFFEFFFEFFFE
(1589340277.563531) can1 08FE6E0B#FFFEFFFEFFFEFFFE
(1589340277.583573) can1 08FE6E0B#FFFEFFFEFFFEFFFE
(1589340277.596306) can1 18ECFF0B#20220005FFCAFE00
(1589340277.603505) can1 08FE6E0B#FFFEFFFEFFFEFFFE
(1589340277.604065) can1 18F0010B#C0FF33FFFF500B3F
(1589340277.604665) can1 18FEBF0B#FFFEFFFFFFFFFFFF
(1589340277.623531) can1 08FE6E0B#FFFEFFFEFFFEFFFE
(1589340277.643517) can1 08FE6E0B#FFFEFFFEFFFEFFFE
(1589340277.645995) can1 18EBFF0B#0104FF2B030D7E15
(1589340277.657644) can1 00D42580#0605027688D0B5AD
(1589340277.658624) can1 00D4258F#060577DB47EA453C
(1589340277.660103) can1 00FECA8F#04F3AB04090CFFFF
(1589340277.660823) can1 00F18F00#0300FFF1FE0000FF
(1589340277.663623) can1 08FE6E0B#FFFEFFFEFFFEFFFE
(1589340277.683537) can1 08FE6E0B#FFFEFFFEFFFEFFFE
(1589340277.695986) can1 18EBFF0B#0203027E1603027E
(1589340277.703505) can1 08FE6E0B#FFFEFFFEFFFEFFFE
(1589340277.704225) can1 18F0010B#C0FF33FFFF500B3F
(1589340277.705065) can1 18FEBF0B#FFFEFFFFFFFFFFFF
(1589340277.723505) can1 08FE6E0B#FFFEFFFEFFFEFFFE
(1589340277.743532) can1 08FE6E0B#FFFEFFFEFFFEFFFE
(1589340277.745987) can1 18EBFF0B#031703027E180302
(1589340277.763506) can1 08FE6E0B#FFFEFFFEFFFEFFFE
(1589340277.783531) can1 08FE6E0B#FFFEFFFEFFFEFFFE
(1589340277.796015) can1 18EBFF0B#047E2203047E7F02
(1589340277.803505) can1 08FE6E0B#FFFEFFFEFFFEFFFE
(1589340277.804375) can1 18F0010B#C0FF33FFFF500B3F
(1589340277.805215) can1 18FEBF0B#FFFEFFFFFFFFFFFF
(1589340277.823506) can1 08FE6E0B#FFFEFFFEFFFEFFFE
(1589340277.843505) can1 08FE6E0B#FFFEFFFEFFFEFFFE
(1589340277.845985) can1 18EBFF0B#05057E15040700FF
(1589340277.852385) can1 18FECA25#04F35A2A0201FFFF
(1589340277.852975) can1 00F18F25#00FEFEFFFFFFFBFF
(1589340277.853505) can1 00D4258B#0605FF322E6A3947
(1589340277.854064) can1 00D48B25#0605FF322E6A3947
(1589340277.855976) can1 18FECA8B#00FF00000000FFFF
(1589340277.856856) can1 00F18F0B#00FEFEFFFFFFFBFF
(1589340277.863505) can1 08FE6E0B#FFFEFFFEFFFEFFFE
(1589340277.883507) can1 08FE6E0B#FFFEFFFEFFFEFFFE
(1589340277.903506) can1 08FE6E0B#FFFEFFFEFFFEFFFE
(1589340277.904454) can1 18F0010B#C0FF33FFFF500B3F
