(1589326646.006935) can1 1F8A3FB7#R3
(1589326646.631333) can1 18D48025#000F
(1589326646.631818) can1 18D48025#000F
(1589326646.644872) can1 18D48325#000F
(1589326646.645237) can1 18D48325#000F
(1589326646.645632) can1 18D48B25#000F
(1589326646.646012) can1 18D48B25#000F
(1589326646.646376) can1 18D48F25#000F
(1589326646.646777) can1 18D48F25#000F
(1589326646.647140) can1 18D4B125#000F
(1589326646.647537) can1 18D4B125#000F
(1589326647.005351) can1 000#0000000000000000
(1589326647.006359) can1 000#0000000000000000
(1589326648.005361) can1 000#0000000000000000
(1589326648.005916) can1 000#0000000000000000
(1589326648.237498) can1 18EC258B#2042000AFF00D400
(1589326648.238052) can1 18EB258B#014004DE5A1C60F5
(1589326648.238611) can1 18EB258B#025C8157983728D6
(1589326648.239166) can1 18EC2580#2042000AFF00D400
(1589326648.239726) can1 18EB258B#039A1F40304EFEFC
(1589326648.240261) can1 18EB2580#014004CC486643B3
(1589326648.240810) can1 18EB258B#042F9EB52F8CDDAB
(1589326648.241366) can1 18EB2580#02B1654A622603E4
(1589326648.241900) can1 18EB258B#0501F5C02D08EDF3
(1589326648.242420) can1 18EB2580#037BAD9343B50591
(1589326648.242981) can1 18EB258B#066D0524B91C4588
(1589326648.243591) can1 18EB2580#04B9F732D0DCE63A
(1589326648.244040) can1 18EB258B#075B4D1B559B82F0
(1589326648.244599) can1 18EB2580#0539A804A3F12D14
(1589326648.245118) can1 18EB258B#089589BA5C6EF91C
(1589326648.245727) can1 18EB2580#0682CF9B715F0630
(1589326648.246339) can1 18EB258B#096FBB7C0C2F385A
(1589326648.246773) can1 18EB2580#07A20BFED8806881
(1589326648.247300) can1 18EB258B#0A5C9E5B0000E0B6
(1589326648.247857) can1 18EB2580#086BF27E167CDD11
(1589326648.248418) can1 18EC8B25#2042000AFF00D400
(1589326648.248971) can1 18EB2580#098F05B8AEA10E96
(1589326648.249497) can1 18EB8B25#014004566C4A4BD2
(1589326648.250078) can1 18EB2580#0ADBB57E0000E0B6
(1589326648.250630) can1 18EB8B25#024082F985425164
(1589326648.251186) can1 18EC258F#2042000AFF00D400
(1589326648.251717) can1 18EB8B25#037B97253549A41D
(1589326648.252271) can1 18EB258F#014004CC486643B3
(1589326648.252830) can1 18EC8025#2042000AFF00D400
(1589326648.253385) can1 18EB258F#02B1654A622603E4
(1589326648.253921) can1 18EB8025#014004566C4A4BD2
(1589326648.254440) can1 18EB258F#037BAD9343B50591
(1589326648.255001) can1 18EB8025#024082F985425164
(1589326648.255521) can1 18EB258F#04B9F732D0DCE63A
(1589326648.256080) can1 18EB8025#037B97253549A41D
(1589326648.256600) can1 18EB258F#0539A804A3F12D14
(1589326648.257160) can1 18EB8025#04536992D36D140F
(1589326648.257710) can1 18EB258F#0682CF9B715F0630
(1589326648.258252) can1 18EB8025#05B7A66ACA94C981
(1589326648.258810) can1 18EB258F#07A20BFED8806881
(1589326648.259340) can1 18EB8025#06FFB5A38F5CD9BF
(1589326648.259900) can1 18EB258F#086BF27E167CDD11
(1589326648.260421) can1 18EB8025#079E2046CE5B7772
(1589326648.260970) can1 18EB258F#098F05B8AEA10E96
(1589326648.261530) can1 18EB8025#08F91FBABA7A8890
(1589326648.262060) can1 18EB258F#0ADBB57E0000E0B6
(1589326648.262646) can1 18EB8025#09BB4551E183A5B3
(1589326648.263180) can1 18EB8025#0A039F2800200200
(1589326648.263741) can1 18EC8F25#2042000AFF00D400
(1589326648.264300) can1 18EB8F25#014004566C4A4BD2
(1589326648.264892) can1 18EB8F25#024082F985425164
(1589326648.265381) can1 18EB8F25#037B97253549A41D
(1589326648.265940) can1 18EB8F25#04536992D36D140F
(1589326648.266490) can1 18EB8F25#05B7A66ACA94C981
(1589326648.267019) can1 18EB8F25#06FFB5A38F5CD9BF
(1589326648.267572) can1 18EB8F25#079E2046CE5B7772
(1589326648.268100) can1 18EB8F25#08F91FBABA7A8890
(1589326648.268660) can1 18EB8F25#09BB4551E183A5B3
(1589326648.269220) can1 18EB8F25#0A039F2800200600
(1589326648.269781) can1 18EB8B25#04536992D36D140F
(1589326648.270301) can1 18EB8B25#05B7A66ACA94C981
(1589326648.270860) can1 18EB8B25#06FFB5A38F5CD9BF
(1589326648.271410) can1 18EB8B25#079E2046CE5B7772
(1589326648.271940) can1 18EB8B25#08F91FBABA7A8890
(1589326648.272491) can1 18EB8B25#09BB4551E183A5B3
(1589326648.273060) can1 18EB8B25#0A039F2800200000
(1589326648.488287) can1 18EC2580#201C0004FF00D400
(1589326648.488845) can1 18EB2580#011A02D0497030AD
(1589326648.489412) can1 18EB2580#02D93632A25B55BF
(1589326648.489950) can1 18EB2580#03B109E4BFF54D91
(1589326648.490481) can1 18EB2580#048BFD77FFFBE42C
(1589326648.491054) can1 18EC258F#201C0004FF00D400
(1589326648.491577) can1 18EB258F#011A02D0497030AD
(1589326648.492170) can1 18EC258B#201C0004FF00D400
(1589326648.492698) can1 18EB258F#02D93632A25B55BF
(1589326648.493251) can1 18EB258B#011A025CEE001231
(1589326648.493781) can1 18EB258F#03B109E4BFF54D91
(1589326648.494318) can1 18EB258B#02788660C88F5B20
(1589326648.494880) can1 18EB258F#048BFD77FFFBE42C
(1589326648.495401) can1 18EB258B#0322D374B4E51648
(1589326648.495950) can1 18EB258B#04C1B7E4412B1D4B
(1589326648.927532) can1 18EC8025#20120003FF00D400
(1589326649.364015) can1 18EC8F25#20120003FF00D400
(1589326649.800457) can1 18EC8B25#20120003FF00D400
(1589326649.801009) can1 18EB8B25#0110066BB7F060C6
(1589326649.801538) can1 18EB8B25#0223386B4D5A3A26
(1589326649.802111) can1 18EB8B25#0350802C5B000000
(1589326649.802668) can1 18EB8F25#0110060578049A74
(1589326649.803199) can1 18EB8F25#020A1AA9B0AC7306
(1589326649.803759) can1 18EB8F25#0314B9823B000006
(1589326649.804320) can1 18EB8025#0110060578049A74
(1589326649.804880) can1 18EB8025#020A1AA9B0AC7306
(1589326649.805439) can1 18EB8025#0314B9823B000002
(1589326649.806000) can1 18FECA25#00FF00000000FFFF
(1589326649.806597) can1 00F18F25#00FEFEFFFFFFFBFF
(1589326649.910892) can1 00D4258B#0605BFF45992D3A2
(1589326649.911400) can1 00D48B25#0605BFF45992D3A2
(1589326649.911997) can1 18FECA8B#00FF00000000FFFF
(1589326649.912557) can1 00D42580#0605BFF45992D3A2
(1589326649.913121) can1 00F18F0B#00FEFEFFFFFFFBFF
(1589326649.913678) can1 00D4258F#0605BFF45992D3A2
(1589326649.914233) can1 00D48025#0605BFF45992D3A2
(1589326649.914760) can1 00D48F25#0605BFF45992D3A2
(1589326649.915375) can1 18FECA80#00FF00000000FFFF
(1589326649.916213) can1 00F18F00#00FEFEFFFFFFFBFF
(1589326650.805380) can1 18FECA25#00FF00000000FFFF
(1589326650.806014) can1 00F18F25#00FEFEFFFFFFFBFF
(1589326650.909989) can1 00D4258B#0605351A9A9DBBE4
(1589326650.910520) can1 00D48B25#0605351A9A9DBBE4
(1589326650.911117) can1 18FECA8B#00FF00000000FFFF
(1589326650.911751) can1 00F18F0B#00FEFEFFFFFFFBFF
(1589326650.912518) can1 00D42580#060546A506865F2C
(1589326650.913156) can1 00D48025#060546A506865F2C
(1589326650.913639) can1 00D4258F#0605BFF45992D3A2
(1589326650.914199) can1 00D48F25#0605BFF45992D3A2
(1589326650.914793) can1 18FECA80#00FF00000000FFFF
(1589326650.915720) can1 00F18F00#00FEFEFFFFFFFBFF
(1589326651.805377) can1 18FECA25#00FF00000000FFFF
(1589326651.805973) can1 00F18F25#00FEFEFFFFFFFBFF
(1589326651.909991) can1 00D4258B#0605DF2F148D2151
(1589326651.910512) can1 00D48B25#0605DF2F148D2151
(1589326651.911078) can1 18FECA8B#00FF00000000FFFF
(1589326651.911721) can1 00F18F0B#00FEFEFFFFFFFBFF
(1589326651.912550) can1 00D42580#0605F413B9A04838
(1589326651.913146) can1 00D48025#0605F413B9A04838
(1589326651.913653) can1 00D4258F#06054E6BD53D1493
(1589326651.914199) can1 00D48F25#06054E6BD53D1493
(1589326651.914790) can1 18FECA80#00FF00000000FFFF
(1589326651.915754) can1 00F18F00#00FEFEFFFFFFFBFF
(1589326652.805372) can1 18FECA25#00FF00000000FFFF
(1589326652.805973) can1 00F18F25#00FEFEFFFFFFFBFF
(1589326652.909994) can1 00D4258B#060584ADC91BFA9E
(1589326652.910507) can1 00D48B25#060584ADC91BFA9E
(1589326652.911078) can1 18FECA8B#00FF00000000FFFF
(1589326652.911721) can1 00F18F0B#00FEFEFFFFFFFBFF
(1589326652.912519) can1 00D42580#06052E5B1B92F7AF
(1589326652.913113) can1 00D48025#06052E5B1B92F7AF
(1589326652.913599) can1 00D4258F#06055C815DD9902E
(1589326652.914161) can1 00D48F25#06055C815DD9902E
(1589326652.914760) can1 18FECA80#00FF00000000FFFF
(1589326652.915827) can1 00F18F00#00FEFEFFFFFFFBFF
(1589326653.805339) can1 18FECA25#00FF00000000FFFF
(1589326653.805973) can1 00F18F25#00FEFEFFFFFFFBFF
(1589326653.909974) can1 00D4258B#0605FDB1887538AC
(1589326653.910506) can1 00D48B25#0605FDB1887538AC
(1589326653.911078) can1 18FECA8B#00FF00000000FFFF
(1589326653.911731) can1 00F18F0B#00FEFEFFFFFFFBFF
(1589326653.912532) can1 00D42580#06058A6429D5E520
(1589326653.913170) can1 00D48025#06058A6429D5E520
(1589326653.913633) can1 00D4258F#0605942A667381E0
(1589326653.914194) can1 00D48F25#0605942A667381E0
(1589326653.914828) can1 18FECA80#00FF00000000FFFF
(1589326653.915766) can1 00F18F00#00FEFEFFFFFFFBFF
(1589326654.805334) can1 18FECA25#00FF00000000FFFF
(1589326654.805936) can1 00F18F25#00FEFEFFFFFFFBFF
(1589326654.909932) can1 00D4258B#06059217275E15DB
(1589326654.910453) can1 00D48B25#06059217275E15DB
(1589326654.911018) can1 18FECA8B#00FF00000000FFFF
(1589326654.911684) can1 00F18F0B#00FEFEFFFFFFFBFF
(1589326654.912533) can1 00D42580#0605B716E07DEB6A
(1589326654.913127) can1 00D48025#0605B716E07DEB6A
(1589326654.913621) can1 00D4258F#0605D6FE79D4824B
(1589326654.914180) can1 00D48F25#0605D6FE79D4824B
(1589326654.914809) can1 18FECA80#00FF00000000FFFF
(1589326654.915749) can1 00F18F00#00FEFEFFFFFFFBFF
(1589326655.805335) can1 18FECA25#00FF00000000FFFF
(1589326655.805898) can1 00F18F25#00FEFEFFFFFFFBFF
(1589326655.909932) can1 00D4258B#0605A88C547E5CE8
(1589326655.910461) can1 00D48B25#0605A88C547E5CE8
(1589326655.911019) can1 18FECA8B#00FF00000000FFFF
(1589326655.911728) can1 00F18F0B#00FEFEFFFFFFFBFF
(1589326655.912501) can1 00D42580#0605A1F8D085E384
(1589326655.913050) can1 00D48025#0605A1F8D085E384
(1589326655.913595) can1 00D4258F#06052A4A25746D0A
(1589326655.914119) can1 00D48F25#06052A4A25746D0A
(1589326655.914718) can1 18FECA80#00FF00000000FFFF
(1589326655.915679) can1 00F18F00#00FEFEFFFFFFFBFF
(1589326656.805332) can1 18FECA25#00FF00000000FFFF
(1589326656.805859) can1 00F18F25#00FEFEFFFFFFFBFF
(1589326656.909932) can1 00D4258B#0605CB6DFB3FF2BE
(1589326656.910459) can1 00D48B25#0605CB6DFB3FF2BE
(1589326656.911058) can1 18FECA8B#00FF00000000FFFF
(1589326656.911694) can1 00F18F0B#00FEFEFFFFFFFBFF
(1589326656.912498) can1 00D42580#06055EA280C3A44D
(1589326656.913126) can1 00D48025#06055EA280C3A44D
(1589326656.913625) can1 00D4258F#06054DD69A8A9ED8
(1589326656.914152) can1 00D48F25#06054DD69A8A9ED8
(1589326656.914747) can1 18FECA80#00FF00000000FFFF
(1589326656.915733) can1 00F18F00#00FEFEFFFFFFFBFF
(1589326657.805294) can1 18FECA25#00FF00000000FFFF
(1589326657.805859) can1 00F18F25#00FEFEFFFFFFFBFF
(1589326657.909948) can1 00D4258B#06053629D17A1FA2
(1589326657.910449) can1 00D48B25#06053629D17A1FA2
(1589326657.911020) can1 18FECA8B#00FF00000000FFFF
(1589326657.911672) can1 00F18F0B#00FEFEFFFFFFFBFF
(1589326657.912521) can1 00D42580#0605A75DBBE0EFDD
(1589326657.913078) can1 00D48025#0605A75DBBE0EFDD
(1589326657.913619) can1 00D4258F#0605F0E9A2009512
(1589326657.914200) can1 00D48F25#0605F0E9A2009512
(1589326657.914790) can1 18FECA80#00FF00000000FFFF
(1589326657.915720) can1 00F18F00#00FEFEFFFFFFFBFF
(1589326658.805308) can1 18FECA25#00FF00000000FFFF
(1589326658.805840) can1 00F18F25#00FEFEFFFFFFFBFF
(1589326658.909925) can1 00D4258B#0605DA910643E3CB
(1589326658.910445) can1 00D48B25#0605DA910643E3CB
(1589326658.911029) can1 18FECA8B#00FF00000000FFFF
(1589326658.911669) can1 00F18F0B#00FEFEFFFFFFFBFF
(1589326658.912480) can1 00D42580#06052AD67079C688
(1589326658.913040) can1 00D48025#06052AD67079C688
(1589326658.913594) can1 00D4258F#0605D3AE8C569E37
(1589326658.914119) can1 00D48F25#0605D3AE8C569E37
(1589326658.914731) can1 18FECA80#00FF00000000FFFF
(1589326658.915699) can1 00F18F00#00FEFEFFFFFFFBFF
(1589326659.805295) can1 18FECA25#00FF00000000FFFF
(1589326659.805821) can1 00F18F25#00FEFEFFFFFFFBFF
(1589326659.909971) can1 00D4258B#06052957C509EE3F
(1589326659.910452) can1 00D48B25#06052957C509EE3F
(1589326659.911038) can1 18FECA8B#00FF00000000FFFF
(1589326659.911641) can1 00F18F0B#00FEFEFFFFFFFBFF
(1589326659.912481) can1 00D42580#0605A51A7DC7A7B1
(1589326659.913108) can1 00D48025#0605A51A7DC7A7B1
(1589326659.913626) can1 00D4258F#0605586BA8985D49
(1589326659.914120) can1 00D48F25#0605586BA8985D49
(1589326659.914714) can1 18FECA80#00FF00000000FFFF
(1589326659.915689) can1 00F18F00#00FEFEFFFFFFFBFF
(1589326660.805258) can1 18FECA25#00FF00000000FFFF
(1589326660.805818) can1 00F18F25#00FEFEFFFFFFFBFF
(1589326660.909921) can1 00D4258B#06050307079A2C8B
(1589326660.910439) can1 00D48B25#06050307079A2C8B
(1589326660.911033) can1 18FECA8B#00FF00000000FFFF
(1589326660.911631) can1 00F18F0B#00FEFEFFFFFFFBFF
(1589326660.912480) can1 00D42580#06051EF1DA9E958C
(1589326660.913039) can1 00D48025#06051EF1DA9E958C
(1589326660.913631) can1 00D4258F#06056A0B716B67C3
(1589326660.914141) can1 00D48F25#06056A0B716B67C3
(1589326660.914754) can1 18FECA80#00FF00000000FFFF
(1589326660.915746) can1 00F18F00#00FEFEFFFFFFFBFF
(1589326661.805289) can1 18FECA25#00FF00000000FFFF
(1589326661.805801) can1 00F18F25#00FEFEFFFFFFFBFF
(1589326661.909918) can1 00D4258B#060537A4746569AF
(1589326661.910836) can1 00D48B25#060537A4746569AF
(1589326661.910992) can1 18FECA8B#00FF00000000FFFF
(1589326661.911600) can1 00F18F0B#00FEFEFFFFFFFBFF
(1589326661.912507) can1 00D42580#0605D852B5DEE0D6
(1589326661.913037) can1 00D48025#0605D852B5DEE0D6
(1589326661.913605) can1 00D4258F#06055FA38EC9BF23
(1589326661.914158) can1 00D48F25#06055FA38EC9BF23
(1589326661.914757) can1 18FECA80#00FF00000000FFFF
(1589326661.915794) can1 00F18F00#00FEFEFFFFFFFBFF
(1589326662.805289) can1 18FECA25#00FF00000000FFFF
(1589326662.805806) can1 00F18F25#00FEFEFFFFFFFBFF
(1589326662.909836) can1 00D4258B#0605275166C7228C
(1589326662.910378) can1 00D48B25#0605275166C7228C
(1589326662.910969) can1 18FECA8B#00FF00000000FFFF
(1589326662.911610) can1 00F18F0B#00FEFEFFFFFFFBFF
(1589326662.912460) can1 00D42580#0605B57FCDDEA7A6
(1589326662.913047) can1 00D48025#0605B57FCDDEA7A6
(1589326662.913592) can1 00D4258F#0605480F27C71727
(1589326662.914150) can1 00D48F25#0605480F27C71727
(1589326662.914753) can1 18FECA80#00FF00000000FFFF
(1589326662.915719) can1 00F18F00#00FEFEFFFFFFFBFF
(1589326663.805258) can1 18FECA25#00FF00000000FFFF
(1589326663.805806) can1 00F18F25#00FEFEFFFFFFFBFF
(1589326663.909876) can1 00D4258B#06052319FEE961EE
(1589326663.910391) can1 00D48B25#06052319FEE961EE
(1589326663.910958) can1 18FECA8B#00FF00000000FFFF
(1589326663.911599) can1 00F18F0B#00FEFEFFFFFFFBFF
(1589326663.912481) can1 00D42580#06054427E54F214A
(1589326663.913117) can1 00D48025#06054427E54F214A
(1589326663.913581) can1 00D4258F#0605EB253211B3BD
(1589326663.914119) can1 00D48F25#0605EB253211B3BD
(1589326663.914735) can1 18FECA80#00FF00000000FFFF
(1589326663.915681) can1 00F18F00#00FEFEFFFFFFFBFF
(1589326664.805250) can1 18FECA25#00FF00000000FFFF
(1589326664.805760) can1 00F18F25#00FEFEFFFFFFFBFF
(1589326664.909908) can1 00D4258B#060560C6D83F5659
(1589326664.910434) can1 00D48B25#060560C6D83F5659
(1589326664.911000) can1 18FECA8B#00FF00000000FFFF
(1589326664.911626) can1 00F18F0B#00FEFEFFFFFFFBFF
(1589326664.912476) can1 00D42580#06055134D29BE6E6
(1589326664.913033) can1 00D48025#06055134D29BE6E6
(1589326664.913560) can1 00D4258F#06055E420C9FF105
(1589326664.914139) can1 00D48F25#06055E420C9FF105
(1589326664.914730) can1 18FECA80#00FF00000000FFFF
(1589326664.915688) can1 00F18F00#00FEFEFFFFFFFBFF
(1589326665.805247) can1 18FECA25#00FF00000000FFFF
(1589326665.805773) can1 00F18F25#00FEFEFFFFFFFBFF
(1589326665.909873) can1 00D4258B#06051C83723B8FB0
(1589326665.910400) can1 00D48B25#06051C83723B8FB0
(1589326665.910959) can1 18FECA8B#00FF00000000FFFF
(1589326665.911586) can1 00F18F0B#00FEFEFFFFFFFBFF
(1589326665.912467) can1 00D42580#06059BFCB317F986
(1589326665.913073) can1 00D48025#06059BFCB317F986
(1589326665.913540) can1 00D4258F#0605FB6E0644931A
(1589326665.914114) can1 00D48F25#0605FB6E0644931A
(1589326665.914705) can1 18FECA80#00FF00000000FFFF
(1589326665.915667) can1 00F18F00#00FEFEFFFFFFFBFF
(1589326666.805217) can1 18FECA25#00FF00000000FFFF
(1589326666.805740) can1 00F18F25#00FEFEFFFFFFFBFF
(1589326666.909841) can1 00D4258B#0605BED0837FD13C
(1589326666.910392) can1 00D48B25#0605BED0837FD13C
(1589326666.910959) can1 18FECA8B#00FF00000000FFFF
(1589326666.911586) can1 00F18F0B#00FEFEFFFFFFFBFF
(1589326666.912441) can1 00D42580#060598E5FD0B852A
(1589326666.913072) can1 00D48025#060598E5FD0B852A
(1589326666.913567) can1 00D4258F#0605EF125E23ECF0
(1589326666.914101) can1 00D48F25#0605EF125E23ECF0
(1589326666.914699) can1 18FECA80#00FF00000000FFFF
(1589326666.915674) can1 00F18F00#00FEFEFFFFFFFBFF
(1589326667.805209) can1 18FECA25#00FF00000000FFFF
(1589326667.805740) can1 00F18F25#00FEFEFFFFFFFBFF
(1589326667.909820) can1 00D4258B#0605BDB7D3A1ACF2
(1589326667.910359) can1 00D48B25#0605BDB7D3A1ACF2
(1589326667.910948) can1 18FECA8B#00FF00000000FFFF
(1589326667.911601) can1 00F18F0B#00FEFEFFFFFFFBFF
(1589326667.912466) can1 00D42580#060502C8A72DD538
(1589326667.913075) can1 00D48025#060502C8A72DD538
(1589326667.913572) can1 00D4258F#0605888320978B18
(1589326667.914119) can1 00D48F25#0605888320978B18
(1589326667.914745) can1 18FECA80#00FF00000000FFFF
(1589326667.915887) can1 00F18F00#00FEFEFFFFFFFBFF
(1589326668.805176) can1 18FECA25#00FF00000000FFFF
(1589326668.805739) can1 00F18F25#00FEFEFFFFFFFBFF
(1589326668.909812) can1 00D4258B#060572621A79B038
(1589326668.910339) can1 00D48B25#060572621A79B038
(1589326668.910917) can1 18FECA8B#00FF00000000FFFF
(1589326668.911540) can1 00F18F0B#00FEFEFFFFFFFBFF
(1589326668.912460) can1 00D42580#0605D74AA33179DF
(1589326668.913013) can1 00D48025#0605D74AA33179DF
(1589326668.913554) can1 00D4258F#0605AD6896A4D3F2
(1589326668.914112) can1 00D48F25#0605AD6896A4D3F2
(1589326668.914679) can1 18FECA80#00FF00000000FFFF
(1589326668.915639) can1 00F18F00#00FEFEFFFFFFFBFF
(1589326669.805174) can1 18FECA25#00FF00000000FFFF
(1589326669.805718) can1 00F18F25#00FEFEFFFFFFFBFF
(1589326669.909831) can1 00D4258B#0605FE5040F782C8
(1589326669.910358) can1 00D48B25#0605FE5040F782C8
(1589326669.910973) can1 18FECA8B#00FF00000000FFFF
(1589326669.911539) can1 00F18F0B#00FEFEFFFFFFFBFF
(1589326669.912460) can1 00D42580#06054ADEA5ED7194
(1589326669.913054) can1 00D48025#06054ADEA5ED7194
(1589326669.913606) can1 00D4258F#0605267ECFC52A8D
(1589326669.914118) can1 00D48F25#0605267ECFC52A8D
(1589326669.914726) can1 18FECA80#00FF00000000FFFF
(1589326669.915759) can1 00F18F00#00FEFEFFFFFFFBFF
(1589326670.805175) can1 18FECA25#00FF00000000FFFF
(1589326670.805699) can1 00F18F25#00FEFEFFFFFFFBFF
(1589326670.909773) can1 00D4258B#0605AE953A284983
(1589326670.910301) can1 00D48B25#0605AE953A284983
(1589326670.910893) can1 18FECA8B#00FF00000000FFFF
(1589326670.911527) can1 00F18F0B#00FEFEFFFFFFFBFF
(1589326670.912460) can1 00D42580#0605B423D45A03AD
(1589326670.913019) can1 00D48025#0605B423D45A03AD
(1589326670.913558) can1 00D4258F#06056EDCE21CC1F3
(1589326670.914159) can1 00D48F25#06056EDCE21CC1F3
(1589326670.914725) can1 18FECA80#00FF00000000FFFF
(1589326670.915711) can1 00F18F00#00FEFEFFFFFFFBFF
(1589326671.805140) can1 18FECA25#00FF00000000FFFF
(1589326671.805708) can1 00F18F25#00FEFEFFFFFFFBFF
(1589326671.909804) can1 00D4258B#0605ED505CB546E6
(1589326671.910332) can1 00D48B25#0605ED505CB546E6
(1589326671.910897) can1 18FECA8B#00FF00000000FFFF
(1589326671.911538) can1 00F18F0B#00FEFEFFFFFFFBFF
(1589326671.912452) can1 00D42580#06051A286F8143D9
(1589326671.913020) can1 00D48025#06051A286F8143D9
(1589326671.913553) can1 00D4258F#0605430E9C6DC1CC
(1589326671.914112) can1 00D48F25#0605430E9C6DC1CC
(1589326671.914680) can1 18FECA80#00FF00000000FFFF
(1589326671.915621) can1 00F18F00#00FEFEFFFFFFFBFF
(1589326672.909774) can1 00D4258B#060507F4BD30F87D
(1589326672.910724) can1 18FECA8B#00FF00000000FFFF
(1589326672.911531) can1 00F18F0B#00FEFEFFFFFFFBFF
(1589326672.912420) can1 00D42580#0605D1F90A5AEC0B
(1589326672.913420) can1 00D4258F#060561385BA7C743
(1589326672.914395) can1 18FECA80#00FF00000000FFFF
(1589326672.915225) can1 00F18F00#00FEFEFFFFFFFBFF
(1589326673.480615) can1 18D48B25#000F
(1589326673.481129) can1 00D48025#0605D1F90A5AEC0B
(1589326673.481670) can1 00D48F25#060561385BA7C743
(1589326673.482000) can1 18D48025#000F
(1589326673.482358) can1 18D48025#000F
(1589326673.482717) can1 18D48325#000F
(1589326673.483079) can1 18D48325#000F
(1589326673.483431) can1 18D48B25#000F
(1589326673.483757) can1 18D48F25#000F
(1589326673.484118) can1 18D48F25#000F
(1589326673.484477) can1 18D4B125#000F
(1589326673.484818) can1 18D4B125#000F
(1589326673.601772) can1 18FECA25#00FF00000000FFFF
(1589326673.602300) can1 00F18F25#00FEFEFFFFFFFBFF
(1589326674.601136) can1 18FECA25#00FF00000000FFFF
(1589326674.601657) can1 00F18F25#00FEFEFFFFFFFBFF
(1589326675.601118) can1 18FECA25#00FF00000000FFFF
(1589326675.601667) can1 00F18F25#00FEFEFFFFFFFBFF
(1589326675.713234) can1 18EC258B#2042000AFF00D400
(1589326675.713781) can1 18EB258B#014004DE5A1C60F5
(1589326675.714320) can1 18EB258B#025C8157983728D6
(1589326675.714886) can1 18EB258B#039A1F40304EFEFC
(1589326675.715452) can1 18EC2580#2042000AFF00D400
(1589326675.715980) can1 18EB258B#042F9EB52F8CDDAB
(1589326675.716540) can1 18EB2580#014004CC486643B3
(1589326675.717090) can1 18EB258B#0501F5C02D08EDF3
(1589326675.717651) can1 18EB2580#02B1654A622603E4
(1589326675.718172) can1 18EB258B#066D0524B91C4588
(1589326675.718701) can1 18EB2580#037BAD9343B50591
(1589326675.719252) can1 18EB258B#075B4D1B559B82F0
(1589326675.719780) can1 18EB2580#04B9F732D0DCE63A
(1589326675.720301) can1 18EB258B#089589BA5C6EF91C
(1589326675.720860) can1 18EB2580#0539A804A3F12D14
(1589326675.721409) can1 18EB258B#096FBB7C0C2F385A
(1589326675.721940) can1 18EB2580#0682CF9B715F0630
(1589326675.722497) can1 18EB258B#0A5C9E5B0000E0B6
(1589326675.723050) can1 18EB2580#07A20BFED8806881
(1589326675.723619) can1 18EC8B25#2042000AFF00D400
(1589326675.724169) can1 18EB2580#086BF27E167CDD11
(1589326675.724700) can1 18EB8B25#014004566C4A4BD2
(1589326675.725253) can1 18EB2580#098F05B8AEA10E96
(1589326675.725807) can1 18EB8B25#024082F985425164
(1589326675.726387) can1 18EB2580#0ADBB57E0000E0B6
(1589326675.726911) can1 18EB8B25#037B97253549A41D
(1589326675.727466) can1 18EC258F#2042000AFF00D400
(1589326675.728000) can1 18EB8B25#04536992D36D140F
(1589326675.728521) can1 18EB258F#014004CC486643B3
(1589326675.729080) can1 18EC8025#2042000AFF00D400
(1589326675.729630) can1 18EB258F#02B1654A622603E4
(1589326675.730180) can1 18EB8025#014004566C4A4BD2
(1589326675.730726) can1 18EB258F#037BAD9343B50591
(1589326675.731261) can1 18EB8025#024082F985425164
(1589326675.731780) can1 18EB258F#04B9F732D0DCE63A
(1589326675.732340) can1 18EB8025#037B97253549A41D
(1589326675.732890) can1 18EB258F#0539A804A3F12D14
(1589326675.733419) can1 18EB8025#04536992D36D140F
(1589326675.733979) can1 18EB258F#0682CF9B715F0630
(1589326675.734529) can1 18EB8025#05B7A66ACA94C981
(1589326675.735060) can1 18EB258F#07A20BFED8806881
(1589326675.735620) can1 18EB8025#06FFB5A38F5CD9BF
(1589326675.736171) can1 18EB258F#086BF27E167CDD11
(1589326675.736700) can1 18EB8025#079E2046CE5B7772
(1589326675.737247) can1 18EB258F#098F05B8AEA10E96
(1589326675.737780) can1 18EB8025#08F91FBABA7A8890
(1589326675.738340) can1 18EB258F#0ADBB57E0000E0B6
(1589326675.738891) can1 18EB8025#09BB4551E183A5B3
(1589326675.739460) can1 18EB8025#0A039F2800200200
(1589326675.740020) can1 18EC8F25#2042000AFF00D400
(1589326675.740580) can1 18EB8F25#014004566C4A4BD2
(1589326675.741130) can1 18EB8F25#024082F985425164
(1589326675.741661) can1 18EB8F25#037B97253549A41D
(1589326675.742211) can1 18EB8F25#04536992D36D140F
(1589326675.742741) can1 18EB8F25#05B7A66ACA94C981
(1589326675.743300) can1 18EB8F25#06FFB5A38F5CD9BF
(1589326675.743821) can1 18EB8F25#079E2046CE5B7772
(1589326675.744380) can1 18EB8F25#08F91FBABA7A8890
(1589326675.744940) can1 18EB8F25#09BB4551E183A5B3
(1589326675.745500) can1 18EB8F25#0A039F2800200600
(1589326675.746050) can1 18EB8B25#05B7A66ACA94C981
(1589326675.746581) can1 18EB8B25#06FFB5A38F5CD9BF
(1589326675.747129) can1 18EB8B25#079E2046CE5B7772
(1589326675.747660) can1 18EB8B25#08F91FBABA7A8890
(1589326675.748220) can1 18EB8B25#09BB4551E183A5B3
(1589326675.748777) can1 18EB8B25#0A039F2800200000
(1589326675.964570) can1 18EC2580#201C0004FF00D400
(1589326675.965092) can1 18EB2580#011A02BD9B0CE45A
(1589326675.965645) can1 18EB2580#02B6D14210C755C8
(1589326675.966176) can1 18EB2580#0312057C70ACE06B
(1589326675.966741) can1 18EB2580#049600088618BAC4
(1589326675.967300) can1 18EC258F#201C0004FF00D400
(1589326675.967859) can1 18EC258B#201C0004FF00D400
(1589326675.968411) can1 18EB258F#011A02BD9B0CE45A
(1589326675.968941) can1 18EB258B#011A0243C3EEE1DA
(1589326675.969460) can1 18EB258F#02B6D14210C755C8
(1589326675.970019) can1 18EB258B#0227B2F94DBEBC34
(1589326675.970540) can1 18EB258F#0312057C70ACE06B
(1589326675.971091) can1 18EB258B#0363DC9A9A6D7501
(1589326675.971621) can1 18EB258F#049600088618BAC4
(1589326675.972174) can1 18EB258B#040106090EA42C8D
(1589326676.403776) can1 18EC8025#20120003FF00D400
(1589326676.840247) can1 18EC8F25#20120003FF00D400
(1589326677.276714) can1 18EC8B25#20120003FF00D400
(1589326677.277239) can1 18EB8B25#01100607866CBE86
(1589326677.277828) can1 18EB8B25#02DC3ABBCF4F9190
(1589326677.278369) can1 18EB8B25#03733C6108000000
(1589326677.278898) can1 18EB8F25#01100663D8C4748D
(1589326677.279452) can1 18EB8F25#021C63721929F721
(1589326677.280010) can1 18EB8F25#0301EA1A9B000006
(1589326677.280570) can1 18EB8025#01100663D8C4748D
(1589326677.281101) can1 18EB8025#021C63721929F721
(1589326677.281686) can1 18EB8025#0301EA1A9B000002
(1589326677.282285) can1 18FECA25#00FF00000000FFFF
(1589326677.282820) can1 00F18F25#00FEFEFFFFFFFBFF
(1589326677.387136) can1 00D4258B#0605BFF45992D3A2
(1589326677.387660) can1 00D48B25#0605BFF45992D3A2
(1589326677.388252) can1 18FECA8B#00FF00000000FFFF
(1589326677.388818) can1 00D42580#0605BFF45992D3A2
(1589326677.389405) can1 00F18F0B#00FEFEFFFFFFFBFF
(1589326677.389949) can1 00D4258F#0605BFF45992D3A2
(1589326677.390474) can1 00D48025#0605BFF45992D3A2
(1589326677.391031) can1 00D48F25#0605BFF45992D3A2
(1589326677.391613) can1 18FECA80#00FF00000000FFFF
(1589326677.392452) can1 00F18F00#00FEFEFFFFFFFBFF
(1589326678.281097) can1 18FECA25#00FF00000000FFFF
(1589326678.281632) can1 00F18F25#00FEFEFFFFFFFBFF
(1589326678.386731) can1 00D4258B#0605351A9A9DBBE4
(1589326678.387272) can1 00D48B25#0605351A9A9DBBE4
(1589326678.387839) can1 18FECA8B#00FF00000000FFFF
(1589326678.388449) can1 00D42580#060546A506865F2C
(1589326678.388981) can1 00F18F0B#00FEFEFFFFFFFBFF
(1589326678.389531) can1 00D4258F#0605BFF45992D3A2
(1589326678.390080) can1 00D48025#060546A506865F2C
(1589326678.390654) can1 00D48F25#0605BFF45992D3A2
(1589326678.391200) can1 18FECA80#00FF00000000FFFF
(1589326678.391997) can1 00F18F00#00FEFEFFFFFFFBFF
(1589326679.281088) can1 18FECA25#00FF00000000FFFF
(1589326679.281629) can1 00F18F25#00FEFEFFFFFFFBFF
(1589326679.386734) can1 00D4258B#0605DF2F148D2151
(1589326679.387273) can1 00D48B25#0605DF2F148D2151
(1589326679.387837) can1 18FECA8B#00FF00000000FFFF
(1589326679.388451) can1 00D42580#0605F413B9A04838
(1589326679.389006) can1 00F18F0B#00FEFEFFFFFFFBFF
(1589326679.389538) can1 00D4258F#06054E6BD53D1493
(1589326679.390079) can1 00D48025#0605F413B9A04838
(1589326679.390634) can1 00D48F25#06054E6BD53D1493
(1589326679.391245) can1 18FECA80#00FF00000000FFFF
(1589326679.392059) can1 00F18F00#00FEFEFFFFFFFBFF
(1589326680.281058) can1 18FECA25#00FF00000000FFFF
(1589326680.281611) can1 00F18F25#00FEFEFFFFFFFBFF
(1589326680.386697) can1 00D4258B#060584ADC91BFA9E
(1589326680.387220) can1 00D48B25#060584ADC91BFA9E
(1589326680.387818) can1 18FECA8B#00FF00000000FFFF
(1589326680.388416) can1 00D42580#06052E5B1B92F7AF
(1589326680.389006) can1 00F18F0B#00FEFEFFFFFFFBFF
(1589326680.389538) can1 00D4258F#06055C815DD9902E
(1589326680.390080) can1 00D48025#06052E5B1B92F7AF
(1589326680.390639) can1 00D48F25#06055C815DD9902E
(1589326680.391227) can1 18FECA80#00FF00000000FFFF
(1589326680.392087) can1 00F18F00#00FEFEFFFFFFFBFF
(1589326681.281060) can1 18FECA25#00FF00000000FFFF
(1589326681.281598) can1 00F18F25#00FEFEFFFFFFFBFF
(1589326681.386691) can1 00D4258B#0605FDB1887538AC
(1589326681.387219) can1 00D48B25#0605FDB1887538AC
(1589326681.387813) can1 18FECA8B#00FF00000000FFFF
(1589326681.388418) can1 00D42580#06058A6429D5E520
(1589326681.389006) can1 00F18F0B#00FEFEFFFFFFFBFF
(1589326681.389539) can1 00D4258F#0605942A667381E0
(1589326681.390079) can1 00D48025#06058A6429D5E520
(1589326681.390632) can1 00D48F25#0605942A667381E0
(1589326681.391220) can1 18FECA80#00FF00000000FFFF
(1589326681.392090) can1 00F18F00#00FEFEFFFFFFFBFF
(1589326682.281047) can1 18FECA25#00FF00000000FFFF
(1589326682.281591) can1 00F18F25#00FEFEFFFFFFFBFF
(1589326682.386692) can1 00D4258B#06059217275E15DB
(1589326682.387181) can1 00D48B25#06059217275E15DB
(1589326682.387780) can1 18FECA8B#00FF00000000FFFF
(1589326682.388426) can1 00F18F0B#00FEFEFFFFFFFBFF
(1589326682.388960) can1 00D42580#0605B716E07DEB6A
(1589326682.389528) can1 00D4258F#0605D6FE79D4824B
(1589326682.390058) can1 00D48025#0605B716E07DEB6A
(1589326682.390610) can1 00D48F25#0605D6FE79D4824B
(1589326682.391179) can1 18FECA80#00FF00000000FFFF
(1589326682.392116) can1 00F18F00#00FEFEFFFFFFFBFF
(1589326683.281035) can1 18FECA25#00FF00000000FFFF
(1589326683.281587) can1 00F18F25#00FEFEFFFFFFFBFF
(1589326683.386658) can1 00D4258B#0605A88C547E5CE8
(1589326683.387213) can1 00D48B25#0605A88C547E5CE8
(1589326683.387808) can1 18FECA8B#00FF00000000FFFF
(1589326683.388401) can1 00F18F0B#00FEFEFFFFFFFBFF
(1589326683.388958) can1 00D42580#0605A1F8D085E384
(1589326683.389513) can1 00D4258F#06052A4A25746D0A
(1589326683.390114) can1 00D48025#0605A1F8D085E384
(1589326683.390578) can1 00D48F25#06052A4A25746D0A
(1589326683.391178) can1 18FECA80#00FF00000000FFFF
(1589326683.392287) can1 00F18F00#00FEFEFFFFFFFBFF
(1589326684.281017) can1 18FECA25#00FF00000000FFFF
(1589326684.281612) can1 00F18F25#00FEFEFFFFFFFBFF
(1589326684.386656) can1 00D4258B#0605CB6DFB3FF2BE
(1589326684.387221) can1 00D48B25#0605CB6DFB3FF2BE
(1589326684.387779) can1 18FECA8B#00FF00000000FFFF
(1589326684.388406) can1 00D42580#06055EA280C3A44D
(1589326684.388938) can1 00F18F0B#00FEFEFFFFFFFBFF
(1589326684.389494) can1 00D4258F#06054DD69A8A9ED8
(1589326684.390031) can1 00D48025#06055EA280C3A44D
(1589326684.390557) can1 00D48F25#06054DD69A8A9ED8
(1589326684.391138) can1 18FECA80#00FF00000000FFFF
(1589326684.391961) can1 00F18F00#00FEFEFFFFFFFBFF
(1589326685.281013) can1 18FECA25#00FF00000000FFFF
(1589326685.281558) can1 00F18F25#00FEFEFFFFFFFBFF
(1589326685.386656) can1 00D4258B#06053629D17A1FA2
(1589326685.387178) can1 00D48B25#06053629D17A1FA2
(1589326685.387779) can1 18FECA8B#00FF00000000FFFF
(1589326685.388380) can1 00D42580#0605A75DBBE0EFDD
(1589326685.388972) can1 00F18F0B#00FEFEFFFFFFFBFF
(1589326685.389497) can1 00D4258F#0605F0E9A2009512
(1589326685.390067) can1 00D48025#0605A75DBBE0EFDD
(1589326685.390599) can1 00D48F25#0605F0E9A2009512
(1589326685.391215) can1 18FECA80#00FF00000000FFFF
(1589326685.391985) can1 00F18F00#00FEFEFFFFFFFBFF
(1589326686.280977) can1 18FECA25#00FF00000000FFFF
(1589326686.281539) can1 00F18F25#00FEFEFFFFFFFBFF
(1589326686.386659) can1 00D4258B#0605DA910643E3CB
(1589326686.387179) can1 00D48B25#0605DA910643E3CB
(1589326686.387779) can1 18FECA8B#00FF00000000FFFF
(1589326686.388404) can1 00D42580#06052AD67079C688
(1589326686.388971) can1 00F18F0B#00FEFEFFFFFFFBFF
(1589326686.389499) can1 00D4258F#0605D3AE8C569E37
(1589326686.390040) can1 00D48025#06052AD67079C688
(1589326686.390593) can1 00D48F25#0605D3AE8C569E37
(1589326686.391159) can1 18FECA80#00FF00000000FFFF
(1589326686.392024) can1 00F18F00#00FEFEFFFFFFFBFF
(1589326687.280979) can1 18FECA25#00FF00000000FFFF
(1589326687.281540) can1 00F18F25#00FEFEFFFFFFFBFF
(1589326687.386638) can1 00D4258B#06052957C509EE3F
(1589326687.387193) can1 00D48B25#06052957C509EE3F
(1589326687.387759) can1 18FECA8B#00FF00000000FFFF
(1589326687.388386) can1 00F18F0B#00FEFEFFFFFFFBFF
(1589326687.388918) can1 00D42580#0605A51A7DC7A7B1
(1589326687.389467) can1 00D4258F#0605586BA8985D49
(1589326687.390036) can1 00D48025#0605A51A7DC7A7B1
(1589326687.390546) can1 00D48F25#0605586BA8985D49
(1589326687.391121) can1 18FECA80#00FF00000000FFFF
(1589326687.392281) can1 00F18F00#00FEFEFFFFFFFBFF
(1589326688.280960) can1 18FECA25#00FF00000000FFFF
(1589326688.281553) can1 00F18F25#00FEFEFFFFFFFBFF
(1589326688.386651) can1 00D4258B#06050307079A2C8B
(1589326688.387180) can1 00D48B25#06050307079A2C8B
(1589326688.387766) can1 18FECA8B#00FF00000000FFFF
(1589326688.388380) can1 00F18F0B#00FEFEFFFFFFFBFF
(1589326688.388931) can1 00D42580#06051EF1DA9E958C
(1589326688.389493) can1 00D4258F#06056A0B716B67C3
(1589326688.390188) can1 00D48025#06051EF1DA9E958C
(1589326688.390606) can1 00D48F25#06056A0B716B67C3
(1589326688.391173) can1 18FECA80#00FF00000000FFFF
(1589326688.392253) can1 00F18F00#00FEFEFFFFFFFBFF
(1589326689.280980) can1 18FECA25#00FF00000000FFFF
(1589326689.281533) can1 00F18F25#00FEFEFFFFFFFBFF
(1589326689.386619) can1 00D4258B#060537A4746569AF
(1589326689.387139) can1 00D48B25#060537A4746569AF
(1589326689.387775) can1 18FECA8B#00FF00000000FFFF
(1589326689.388392) can1 00F18F0B#00FEFEFFFFFFFBFF
(1589326689.388920) can1 00D42580#0605D852B5DEE0D6
(1589326689.389471) can1 00D4258F#06055FA38EC9BF23
(1589326689.390000) can1 00D48025#0605D852B5DEE0D6
(1589326689.390559) can1 00D48F25#06055FA38EC9BF23
(1589326689.391139) can1 18FECA80#00FF00000000FFFF
(1589326689.392060) can1 00F18F00#00FEFEFFFFFFFBFF
(1589326690.280941) can1 18FECA25#00FF00000000FFFF
(1589326690.281500) can1 00F18F25#00FEFEFFFFFFFBFF
(1589326690.386632) can1 00D4258B#0605275166C7228C
(1589326690.387152) can1 00D48B25#0605275166C7228C
(1589326690.387719) can1 18FECA8B#00FF00000000FFFF
(1589326690.388385) can1 00D42580#0605B57FCDDEA7A6
(1589326690.388952) can1 00F18F0B#00FEFEFFFFFFFBFF
(1589326690.389512) can1 00D4258F#0605480F27C71727
(1589326690.390065) can1 00D48025#0605B57FCDDEA7A6
(1589326690.390641) can1 00D48F25#0605480F27C71727
(1589326690.391192) can1 18FECA80#00FF00000000FFFF
(1589326690.392037) can1 00F18F00#00FEFEFFFFFFFBFF
(1589326691.280941) can1 18FECA25#00FF00000000FFFF
(1589326691.281499) can1 00F18F25#00FEFEFFFFFFFBFF
(1589326691.386612) can1 00D4258B#06052319FEE961EE
(1589326691.387137) can1 00D48B25#06052319FEE961EE
(1589326691.387754) can1 18FECA8B#00FF00000000FFFF
(1589326691.388401) can1 00F18F0B#00FEFEFFFFFFFBFF
(1589326691.388951) can1 00D42580#06054427E54F214A
(1589326691.389480) can1 00D4258F#0605EB253211B3BD
(1589326691.390038) can1 00D48025#06054427E54F214A
(1589326691.390587) can1 00D48F25#0605EB253211B3BD
(1589326691.391173) can1 18FECA80#00FF00000000FFFF
(1589326691.392099) can1 00F18F00#00FEFEFFFFFFFBFF
(1589326692.280937) can1 18FECA25#00FF00000000FFFF
(1589326692.281493) can1 00F18F25#00FEFEFFFFFFFBFF
(1589326692.386612) can1 00D4258B#060560C6D83F5659
(1589326692.387139) can1 00D48B25#060560C6D83F5659
(1589326692.387732) can1 18FECA8B#00FF00000000FFFF
(1589326692.388367) can1 00F18F0B#00FEFEFFFFFFFBFF
(1589326692.388891) can1 00D42580#06055134D29BE6E6
(1589326692.389421) can1 00D4258F#06055E420C9FF105
(1589326692.390110) can1 00D48025#06055134D29BE6E6
(1589326692.390519) can1 00D48F25#06055E420C9FF105
(1589326692.391117) can1 18FECA80#00FF00000000FFFF
(1589326692.392020) can1 00F18F00#00FEFEFFFFFFFBFF
(1589326693.280920) can1 18FECA25#00FF00000000FFFF
(1589326693.281460) can1 00F18F25#00FEFEFFFFFFFBFF
(1589326693.386614) can1 00D4258B#06051C83723B8FB0
(1589326693.387132) can1 00D48B25#06051C83723B8FB0
(1589326693.387698) can1 18FECA8B#00FF00000000FFFF
(1589326693.388366) can1 00F18F0B#00FEFEFFFFFFFBFF
(1589326693.388892) can1 00D42580#06059BFCB317F986
(1589326693.389446) can1 00D4258F#0605FB6E0644931A
(1589326693.389994) can1 00D48025#06059BFCB317F986
(1589326693.390546) can1 00D48F25#0605FB6E0644931A
(1589326693.391118) can1 18FECA80#00FF00000000FFFF
(1589326693.392299) can1 00F18F00#00FEFEFFFFFFFBFF
(1589326694.280899) can1 18FECA25#00FF00000000FFFF
(1589326694.281472) can1 00F18F25#00FEFEFFFFFFFBFF
(1589326694.386645) can1 00D4258B#0605BED0837FD13C
(1589326694.387119) can1 00D48B25#0605BED0837FD13C
(1589326694.387745) can1 18FECA8B#00FF00000000FFFF
(1589326694.388317) can1 00F18F0B#00FEFEFFFFFFFBFF
(1589326694.388878) can1 00D42580#060598E5FD0B852A
(1589326694.389433) can1 00D4258F#0605EF125E23ECF0
(1589326694.389987) can1 00D48025#060598E5FD0B852A
(1589326694.390528) can1 00D48F25#0605EF125E23ECF0
(1589326694.391096) can1 18FECA80#00FF00000000FFFF
(1589326694.392086) can1 00F18F00#00FEFEFFFFFFFBFF
(1589326694.412675) can1 18EEFF0B#0000400B00090000
(1589326694.470946) can1 08FE6E0B#0000000000000000
(1589326694.471076) can1 18F0010B#CCFF33FFFF500B3F
(1589326694.471565) can1 18FEBF0B#00007D7D7D7DFFFF
(1589326694.472210) can1 18EAFF0B#E5FE00
(1589326694.489874) can1 08FE6E0B#0000000000000000
(1589326694.509915) can1 08FE6E0B#0000000000000000
(1589326694.512786) can1 18FECA0B#00FF00000000FFFF
(1589326694.529912) can1 08FE6E0B#0000000000000000
(1589326694.549979) can1 08FE6E0B#0000000000000000
(1589326694.569971) can1 08FE6E0B#0000000000000000
(1589326694.570847) can1 18F0010B#CCFF33FFFF500B3F
(1589326694.571707) can1 18FEBF0B#00007D7D7D7DFFFF
(1589326694.589930) can1 08FE6E0B#0000000000000000
(1589326694.609960) can1 08FE6E0B#0000000000000000
(1589326694.630091) can1 08FE6E0B#0000000000000000
(1589326694.649976) can1 08FE6E0B#0000000000000000
(1589326694.669917) can1 08FE6E0B#0000000000000000
(1589326694.670473) can1 18F0010B#CCFF33FFFF500B3F
(1589326694.671037) can1 18FEBF0B#00007D7D7D7DFFFF
(1589326694.689946) can1 08FE6E0B#0000000000000000
(1589326694.710113) can1 08FE6E0B#0000000000000000
(1589326694.713331) can1 18ECFF0B#20120003FFCAFE00
(1589326694.730007) can1 08FE6E0B#FFFEFFFEFFFEFFFE
(1589326694.749979) can1 08FE6E0B#FFFEFFFEFFFEFFFE
(1589326694.762749) can1 18EBFF0B#0104FF1503027E16
(1589326694.770046) can1 08FE6E0B#FFFEFFFEFFFEFFFE
(1589326694.770741) can1 18F0010B#C0FF33FFFF500B3F
(1589326694.771580) can1 18FEBF0B#FFFEFFFFFFFFFFFF
(1589326694.790010) can1 08FE6E0B#FFFEFFFEFFFEFFFE
(1589326694.810021) can1 08FE6E0B#FFFEFFFEFFFEFFFE
(1589326694.812770) can1 18EBFF0B#0203027E1703027E
(1589326694.829981) can1 08FE6E0B#FFFEFFFEFFFEFFFE
(1589326694.850006) can1 08FE6E0B#FFFEFFFEFFFEFFFE
(1589326694.862785) can1 18EBFF0B#031803027EFFFFFF
(1589326694.870018) can1 08FE6E0B#FFFEFFFEFFFEFFFE
(1589326694.870571) can1 18F0010B#C0FF33FFFF500B3F
(1589326694.871170) can1 18FEBF0B#FFFEFFFFFFFFFFFF
(1589326694.890016) can1 08FE6E0B#FFFEFFFEFFFEFFFE
(1589326694.910050) can1 08FE6E0B#FFFEFFFEFFFEFFFE
(1589326694.913047) can1 18ECFF0B#20160004FFCAFE00
(1589326694.929971) can1 08FE6E0B#FFFEFFFEFFFEFFFE
(1589326694.949976) can1 08FE6E0B#FFFEFFFEFFFEFFFE
(1589326694.962605) can1 18EBFF0B#0104FF1503027E16
(1589326694.969933) can1 08FE6E0B#FFFEFFFEFFFEFFFE
(1589326694.970691) can1 18F0010B#C0FF33FFFF500B3F
(1589326694.971540) can1 18FEBF0B#FFFEFFFFFFFFFFFF
(1589326694.989926) can1 08FE6E0B#FFFEFFFEFFFEFFFE
(1589326695.009926) can1 08FE6E0B#FFFEFFFEFFFEFFFE
(1589326695.012581) can1 18EBFF0B#0203027E1703027E
(1589326695.029933) can1 08FE6E0B#FFFEFFFEFFFEFFFE
(1589326695.049973) can1 08FE6E0B#FFFEFFFEFFFEFFFE
(1589326695.062614) can1 18EBFF0B#031803027E220304
(1589326695.069929) can1 08FE6E0B#FFFEFFFEFFFEFFFE
(1589326695.070492) can1 18F0010B#C0FF33FFFF500B3F
(1589326695.071060) can1 18FEBF0B#FFFEFFFFFFFFFFFF
(1589326695.089931) can1 08FE6E0B#FFFEFFFEFFFEFFFE
(1589326695.109932) can1 08FE6E0B#FFFEFFFEFFFEFFFE
(1589326695.112621) can1 18EBFF0B#047EFFFFFFFFFFFF
(1589326695.129930) can1 08FE6E0B#FFFEFFFEFFFEFFFE
(1589326695.150059) can1 08FE6E0B#FFFEFFFEFFFEFFFE
(1589326695.169947) can1 08FE6E0B#FFFEFFFEFFFEFFFE
(1589326695.170706) can1 18F0010B#C0FF33FFFF500B3F
(1589326695.171560) can1 18FEBF0B#FFFEFFFFFFFFFFFF
(1589326695.189947) can1 08FE6E0B#FFFEFFFEFFFEFFFE
(1589326695.209933) can1 08FE6E0B#FFFEFFFEFFFEFFFE
(1589326695.229934) can1 08FE6E0B#FFFEFFFEFFFEFFFE
(1589326695.249975) can1 08FE6E0B#FFFEFFFEFFFEFFFE
(1589326695.269932) can1 08FE6E0B#FFFEFFFEFFFEFFFE
(1589326695.270839) can1 18F0010B#C0FF33FFFF500B3F
(1589326695.271711) can1 18FEBF0B#FFFEFFFFFFFFFFFF
(1589326695.280886) can1 18FECA25#00FF00000000FFFF
(1589326695.281486) can1 00F18F25#00FEFEFFFFFFFBFF
(1589326695.290010) can1 08FE6E0B#FFFEFFFEFFFEFFFE
(1589326695.309965) can1 08FE6E0B#FFFEFFFEFFFEFFFE
(1589326695.329967) can1 08FE6E0B#FFFEFFFEFFFEFFFE
(1589326695.349972) can1 08FE6E0B#FFFEFFFEFFFEFFFE
(1589326695.370018) can1 08FE6E0B#FFFEFFFEFFFEFFFE
(1589326695.370571) can1 18F0010B#C0FF33FFFF500B3F
(1589326695.371173) can1 18FEBF0B#FFFEFFFFFFFFFFFF
(1589326695.386590) can1 00D4258B#06057CFCB27C2077
(1589326695.387147) can1 00D48B25#06057CFCB27C2077
(1589326695.387745) can1 18FECA8B#00FF00000000FFFF
(1589326695.388360) can1 00F18F0B#00FEFEFFFFFFFBFF
(1589326695.388913) can1 00D42580#060502C8A72DD538
(1589326695.389465) can1 00D4258F#0605888320978B18
(1589326695.390041) can1 00D48025#060502C8A72DD538
(1589326695.390537) can1 00D48F25#0605888320978B18
(1589326695.391118) can1 08FE6E0B#FFFEFFFEFFFEFFFE
(1589326695.391718) can1 18FECA80#00FF00000000FFFF
(1589326695.392458) can1 00F18F00#00FEFEFFFFFFFBFF
(1589326695.409997) can1 08FE6E0B#FFFEFFFEFFFEFFFE
(1589326695.429968) can1 08FE6E0B#FFFEFFFEFFFEFFFE
(1589326695.450011) can1 08FE6E0B#FFFEFFFEFFFEFFFE
(1589326695.469954) can1 08FE6E0B#FFFEFFFEFFFEFFFE
(1589326695.470512) can1 18F0010B#C0FF33FFFF500B3F
(1589326695.471111) can1 18FEBF0B#FFFEFFFFFFFFFFFF
(1589326695.489950) can1 08FE6E0B#FFFEFFFEFFFEFFFE
(1589326695.509967) can1 08FE6E0B#FFFEFFFEFFFEFFFE
(1589326695.529966) can1 08FE6E0B#FFFEFFFEFFFEFFFE
(1589326695.549968) can1 08FE6E0B#FFFEFFFEFFFEFFFE
(1589326695.569968) can1 08FE6E0B#FFFEFFFEFFFEFFFE
(1589326695.570606) can1 18F0010B#C0FF33FFFF500B3F
(1589326695.571205) can1 18FEBF0B#FFFEFFFFFFFFFFFF
(1589326695.589940) can1 08FE6E0B#FFFEFFFEFFFEFFFE
(1589326695.609940) can1 08FE6E0B#FFFEFFFEFFFEFFFE
(1589326695.629940) can1 08FE6E0B#FFFEFFFEFFFEFFFE
(1589326695.649938) can1 08FE6E0B#FFFEFFFEFFFEFFFE
(1589326695.669967) can1 08FE6E0B#FFFEFFFEFFFEFFFE
(1589326695.670726) can1 18F0010B#C0FF33FFFF500B3F
(1589326695.671571) can1 18FEBF0B#FFFEFFFFFFFFFFFF
(1589326695.689965) can1 08FE6E0B#FFFEFFFEFFFEFFFE
(1589326695.709970) can1 08FE6E0B#FFFEFFFEFFFEFFFE
(1589326695.729940) can1 08FE6E0B#FFFEFFFEFFFEFFFE
(1589326695.749971) can1 08FE6E0B#FFFEFFFEFFFEFFFE
(1589326695.769993) can1 08FE6E0B#FFFEFFFEFFFEFFFE
(1589326695.770518) can1 18F0010B#C0FF33FFFF500B3F
(1589326695.771118) can1 18FEBF0B#FFFEFFFFFFFFFFFF
(1589326695.789965) can1 08FE6E0B#FFFEFFFEFFFEFFFE
(1589326695.809965) can1 08FE6E0B#FFFEFFFEFFFEFFFE
(1589326695.829941) can1 08FE6E0B#FFFEFFFEFFFEFFFE
(1589326695.849971) can1 08FE6E0B#FFFEFFFEFFFEFFFE
(1589326695.869994) can1 08FE6E0B#FFFEFFFEFFFEFFFE
(1589326695.870520) can1 18F0010B#C0FF33FFFF500B3F
(1589326695.871358) can1 18FEBF0B#FFFEFFFFFFFFFFFF
(1589326695.889980) can1 08FE6E0B#FFFEFFFEFFFEFFFE
(1589326695.909988) can1 08FE6E0B#FFFEFFFEFFFEFFFE
(1589326695.912865) can1 18ECFF0B#20160004FFCAFE00
(1589326695.929985) can1 08FE6E0B#FFFEFFFEFFFEFFFE
(1589326695.949961) can1 08FE6E0B#FFFEFFFEFFFEFFFE
(1589326695.962629) can1 18EBFF0B#0104FF1503027E16
(1589326695.969988) can1 08FE6E0B#FFFEFFFEFFFEFFFE
(1589326695.970518) can1 18F0010B#C0FF33FFFF500B3F
(1589326695.971111) can1 18FEBF0B#FFFEFFFFFFFFFFFF
(1589326695.989986) can1 08FE6E0B#FFFEFFFEFFFEFFFE
(1589326696.009961) can1 08FE6E0B#FFFEFFFEFFFEFFFE
(1589326696.012600) can1 18EBFF0B#0203027E1703027E
(1589326696.029954) can1 08FE6E0B#FFFEFFFEFFFEFFFE
(1589326696.049961) can1 08FE6E0B#FFFEFFFEFFFEFFFE
(1589326696.062601) can1 18EBFF0B#031803027E220304
(1589326696.070140) can1 08FE6E0B#FFFEFFFEFFFEFFFE
(1589326696.070497) can1 18F0010B#C0FF33FFFF500B3F
(1589326696.071098) can1 18FEBF0B#FFFEFFFFFFFFFFFF
(1589326696.089941) can1 08FE6E0B#FFFEFFFEFFFEFFFE
(1589326696.109941) can1 08FE6E0B#FFFEFFFEFFFEFFFE
(1589326696.112660) can1 18EBFF0B#047EFFFFFFFFFFFF
(1589326696.129941) can1 08FE6E0B#FFFEFFFEFFFEFFFE
(1589326696.149940) can1 08FE6E0B#FFFEFFFEFFFEFFFE
(1589326696.169971) can1 08FE6E0B#FFFEFFFEFFFEFFFE
(1589326696.170581) can1 18F0010B#C0FF33FFFF500B3F
(1589326696.171421) can1 18FEBF0B#FFFEFFFFFFFFFFFF
(1589326696.189938) can1 08FE6E0B#FFFEFFFEFFFEFFFE
(1589326696.209941) can1 08FE6E0B#FFFEFFFEFFFEFFFE
(1589326696.229972) can1 08FE6E0B#FFFEFFFEFFFEFFFE
(1589326696.249940) can1 08FE6E0B#FFFEFFFEFFFEFFFE
(1589326696.269968) can1 08FE6E0B#FFFEFFFEFFFEFFFE
(1589326696.270659) can1 18F0010B#C0FF33FFFF500B3F
(1589326696.271531) can1 18FEBF0B#FFFEFFFFFFFFFFFF
(1589326696.280885) can1 18FECA25#00FF00000000FFFF
(1589326696.281450) can1 00F18F25#00FEFEFFFFFFFBFF
(1589326696.289994) can1 08FE6E0B#FFFEFFFEFFFEFFFE
(1589326696.309991) can1 08FE6E0B#FFFEFFFEFFFEFFFE
(1589326696.330008) can1 08FE6E0B#FFFEFFFEFFFEFFFE
(1589326696.350006) can1 08FE6E0B#FFFEFFFEFFFEFFFE
(1589326696.369996) can1 08FE6E0B#FFFEFFFEFFFEFFFE
(1589326696.370551) can1 18F0010B#C0FF33FFFF500B3F
(1589326696.371118) can1 18FEBF0B#FFFEFFFFFFFFFFFF
(1589326696.386571) can1 00D4258B#0605EED27BBC7AC6
(1589326696.387091) can1 00D48B25#0605EED27BBC7AC6
(1589326696.387661) can1 18FECA8B#00FF00000000FFFF
(1589326696.388300) can1 00F18F0B#00FEFEFFFFFFFBFF
(1589326696.388858) can1 00D42580#0605D74AA33179DF
(1589326696.389398) can1 00D4258F#0605AD6896A4D3F2
(1589326696.390060) can1 00D48025#0605D74AA33179DF
(1589326696.390492) can1 00D48F25#0605AD6896A4D3F2
(1589326696.391059) can1 08FE6E0B#FFFEFFFEFFFEFFFE
(1589326696.391672) can1 18FECA80#00FF00000000FFFF
(1589326696.392459) can1 00F18F00#00FEFEFFFFFFFBFF
(1589326696.409995) can1 08FE6E0B#FFFEFFFEFFFEFFFE
(1589326696.430012) can1 08FE6E0B#FFFEFFFEFFFEFFFE
(1589326696.450010) can1 08FE6E0B#FFFEFFFEFFFEFFFE
(1589326696.470009) can1 08FE6E0B#FFFEFFFEFFFEFFFE
(1589326696.470538) can1 18F0010B#C0FF33FFFF500B3F
(1589326696.471131) can1 18FEBF0B#FFFEFFFFFFFFFFFF
(1589326696.490006) can1 08FE6E0B#FFFEFFFEFFFEFFFE
(1589326696.509980) can1 08FE6E0B#FFFEFFFEFFFEFFFE
(1589326696.530126) can1 08FE6E0B#FFFEFFFEFFFEFFFE
(1589326696.550012) can1 08FE6E0B#FFFEFFFEFFFEFFFE
(1589326696.570006) can1 08FE6E0B#FFFEFFFEFFFEFFFE
(1589326696.570541) can1 18F0010B#C0FF33FFFF500B3F
(1589326696.571131) can1 18FEBF0B#FFFEFFFFFFFFFFFF
(1589326696.590047) can1 08FE6E0B#FFFEFFFEFFFEFFFE
(1589326696.610046) can1 08FE6E0B#FFFEFFFEFFFEFFFE
(1589326696.630006) can1 08FE6E0B#FFFEFFFEFFFEFFFE
(1589326696.649981) can1 08FE6E0B#FFFEFFFEFFFEFFFE
(1589326696.670006) can1 08FE6E0B#FFFEFFFEFFFEFFFE
(1589326696.670567) can1 18F0010B#C0FF33FFFF500B3F
(1589326696.671131) can1 18FEBF0B#FFFEFFFFFFFFFFFF
(1589326696.690005) can1 08FE6E0B#FFFEFFFEFFFEFFFE
(1589326696.709994) can1 08FE6E0B#FFFEFFFEFFFEFFFE
(1589326696.730027) can1 08FE6E0B#FFFEFFFEFFFEFFFE
(1589326696.750007) can1 08FE6E0B#FFFEFFFEFFFEFFFE
(1589326696.770006) can1 08FE6E0B#FFFEFFFEFFFEFFFE
(1589326696.770571) can1 18F0010B#C0FF33FFFF500B3F
(1589326696.771140) can1 18FEBF0B#FFFEFFFFFFFFFFFF
(1589326696.789981) can1 08FE6E0B#FFFEFFFEFFFEFFFE
(1589326696.809980) can1 08FE6E0B#FFFEFFFEFFFEFFFE
(1589326696.829980) can1 08FE6E0B#FFFEFFFEFFFEFFFE
(1589326696.850005) can1 08FE6E0B#FFFEFFFEFFFEFFFE
(1589326696.870012) can1 08FE6E0B#FFFEFFFEFFFEFFFE
(1589326696.870571) can1 18F0010B#C0FF33FFFF500B3F
(1589326696.871141) can1 18FEBF0B#FFFEFFFFFFFFFFFF
(1589326696.889981) can1 08FE6E0B#FFFEFFFEFFFEFFFE
(1589326696.909980) can1 08FE6E0B#FFFEFFFEFFFEFFFE
(1589326696.912850) can1 18ECFF0B#20160004FFCAFE00
(1589326696.929980) can1 08FE6E0B#FFFEFFFEFFFEFFFE
(1589326696.949980) can1 08FE6E0B#FFFEFFFEFFFEFFFE
(1589326696.962619) can1 18EBFF0B#0104FF1503027E16
(1589326696.969981) can1 08FE6E0B#FFFEFFFEFFFEFFFE
(1589326696.970538) can1 18F0010B#C0FF33FFFF500B3F
(1589326696.971141) can1 18FEBF0B#FFFEFFFFFFFFFFFF
(1589326696.989981) can1 08FE6E0B#FFFEFFFEFFFEFFFE
(1589326697.009980) can1 08FE6E0B#FFFEFFFEFFFEFFFE
(1589326697.012620) can1 18EBFF0B#0203027E1703027E
(1589326697.029979) can1 08FE6E0B#FFFEFFFEFFFEFFFE
(1589326697.049993) can1 08FE6E0B#FFFEFFFEFFFEFFFE
(1589326697.062651) can1 18EBFF0B#031803027E220304
(1589326697.070019) can1 08FE6E0B#FFFEFFFEFFFEFFFE
(1589326697.070538) can1 18F0010B#C0FF33FFFF500B3F
(1589326697.071141) can1 18FEBF0B#FFFEFFFFFFFFFFFF
(1589326697.089980) can1 08FE6E0B#FFFEFFFEFFFEFFFE
(1589326697.109980) can1 08FE6E0B#FFFEFFFEFFFEFFFE
(1589326697.112659) can1 18EBFF0B#047EFFFFFFFFFFFF
(1589326697.129980) can1 08FE6E0B#FFFEFFFEFFFEFFFE
(1589326697.150006) can1 08FE6E0B#FFFEFFFEFFFEFFFE
(1589326697.170005) can1 08FE6E0B#FFFEFFFEFFFEFFFE
(1589326697.170539) can1 18F0010B#C0FF33FFFF500B3F
(1589326697.171140) can1 18FEBF0B#FFFEFFFFFFFFFFFF
(1589326697.189978) can1 08FE6E0B#FFFEFFFEFFFEFFFE
(1589326697.210007) can1 08FE6E0B#FFFEFFFEFFFEFFFE
(1589326697.229992) can1 08FE6E0B#FFFEFFFEFFFEFFFE
(1589326697.249991) can1 08FE6E0B#FFFEFFFEFFFEFFFE
(1589326697.270009) can1 08FE6E0B#FFFEFFFEFFFEFFFE
(1589326697.270885) can1 18F0010B#C0FF33FFFF500B3F
(1589326697.271741) can1 18FEBF0B#FFFEFFFFFFFFFFFF
(1589326697.280860) can1 18FECA25#00FF00000000FFFF
(1589326697.281421) can1 00F18F25#00FEFEFFFFFFFBFF
(1589326697.290033) can1 08FE6E0B#FFFEFFFEFFFEFFFE
(1589326697.310009) can1 08FE6E0B#FFFEFFFEFFFEFFFE
(1589326697.330006) can1 08FE6E0B#FFFEFFFEFFFEFFFE
(1589326697.349979) can1 08FE6E0B#FFFEFFFEFFFEFFFE
(1589326697.363214) can1 18ECFF0B#201A0004FFCAFE00
(1589326697.370015) can1 08FE6E0B#FFFEFFFEFFFEFFFE
(1589326697.370573) can1 18F0010B#C0FF33FFFF500B3F
(1589326697.371138) can1 18FEBF0B#FFFEFFFFFFFFFFFF
(1589326697.386541) can1 00D4258B#0605DD3BFAFF164B
(1589326697.387101) can1 00D48B25#0605DD3BFAFF164B
(1589326697.387691) can1 18FECA8B#00FF00000000FFFF
(1589326697.388299) can1 00F18F0B#00FEFEFFFFFFFBFF
(1589326697.388857) can1 00D42580#06054ADEA5ED7194
(1589326697.389413) can1 00D4258F#0605267ECFC52A8D
(1589326697.389961) can1 00D48025#06054ADEA5ED7194
(1589326697.390525) can1 00D48F25#0605267ECFC52A8D
(1589326697.391093) can1 08FE6E0B#FFFEFFFEFFFEFFFE
(1589326697.391659) can1 18FECA80#00FF00000000FFFF
(1589326697.392647) can1 00F18F00#00FEFEFFFFFFFBFF
(1589326697.410016) can1 08FE6E0B#FFFEFFFEFFFEFFFE
(1589326697.412647) can1 18EBFF0B#0104FF2B030D7E15
(1589326697.430031) can1 08FE6E0B#FFFEFFFEFFFEFFFE
(1589326697.450077) can1 08FE6E0B#FFFEFFFEFFFEFFFE
(1589326697.462755) can1 18EBFF0B#0203027E1603027E
(1589326697.470059) can1 08FE6E0B#FFFEFFFEFFFEFFFE
(1589326697.470698) can1 18F0010B#C0FF33FFFF500B3F
(1589326697.471560) can1 18FEBF0B#FFFEFFFFFFFFFFFF
(1589326697.490041) can1 08FE6E0B#FFFEFFFEFFFEFFFE
(1589326697.510040) can1 08FE6E0B#FFFEFFFEFFFEFFFE
(1589326697.512689) can1 18EBFF0B#031703027E180302
(1589326697.530046) can1 08FE6E0B#FFFEFFFEFFFEFFFE
(1589326697.550046) can1 08FE6E0B#FFFEFFFEFFFEFFFE
(1589326697.562692) can1 18EBFF0B#047E2203047EFFFF
(1589326697.570020) can1 08FE6E0B#FFFEFFFEFFFEFFFE
(1589326697.570579) can1 18F0010B#C0FF33FFFF500B3F
(1589326697.571181) can1 18FEBF0B#FFFEFFFFFFFFFFFF
(1589326697.590045) can1 08FE6E0B#FFFEFFFEFFFEFFFE
(1589326697.610020) can1 08FE6E0B#FFFEFFFEFFFEFFFE
(1589326697.630050) can1 08FE6E0B#FFFEFFFEFFFEFFFE
(1589326697.650050) can1 08FE6E0B#FFFEFFFEFFFEFFFE
(1589326697.670050) can1 08FE6E0B#FFFEFFFEFFFEFFFE
(1589326697.670619) can1 18F0010B#C0FF33FFFF500B3F
(1589326697.671221) can1 18FEBF0B#FFFEFFFFFFFFFFFF
(1589326697.690051) can1 08FE6E0B#FFFEFFFEFFFEFFFE
(1589326697.710020) can1 08FE6E0B#FFFEFFFEFFFEFFFE
(1589326697.730052) can1 08FE6E0B#FFFEFFFEFFFEFFFE
(1589326697.750069) can1 08FE6E0B#FFFEFFFEFFFEFFFE
(1589326697.770066) can1 08FE6E0B#FFFEFFFEFFFEFFFE
(1589326697.770760) can1 18F0010B#C0FF33FFFF500B3F
(1589326697.771627) can1 18FEBF0B#FFFEFFFFFFFFFFFF
(1589326697.790065) can1 08FE6E0B#FFFEFFFEFFFEFFFE
(1589326697.810041) can1 08FE6E0B#FFFEFFFEFFFEFFFE
(1589326697.830073) can1 08FE6E0B#FFFEFFFEFFFEFFFE
(1589326697.850077) can1 08FE6E0B#FFFEFFFEFFFEFFFE
(1589326697.870068) can1 08FE6E0B#FFFEFFFEFFFEFFFE
(1589326697.870878) can1 18F0010B#C0FF33FFFF500B3F
(1589326697.871768) can1 18FEBF0B#FFFEFFFFFFFFFFFF
(1589326697.890046) can1 08FE6E0B#FFFEFFFEFFFEFFFE
(1589326697.910046) can1 08FE6E0B#FFFEFFFEFFFEFFFE
(1589326697.930060) can1 08FE6E0B#FFFEFFFEFFFEFFFE
(1589326697.950071) can1 08FE6E0B#FFFEFFFEFFFEFFFE
(1589326697.970067) can1 08FE6E0B#FFFEFFFEFFFEFFFE
(1589326697.970597) can1 18F0010B#C0FF33FFFF500B3F
(1589326697.971193) can1 18FEBF0B#FFFEFFFFFFFFFFFF
(1589326697.990066) can1 08FE6E0B#FFFEFFFEFFFEFFFE
(1589326698.010065) can1 08FE6E0B#FFFEFFFEFFFEFFFE
(1589326698.030053) can1 08FE6E0B#FFFEFFFEFFFEFFFE
(1589326698.050052) can1 08FE6E0B#FFFEFFFEFFFEFFFE
(1589326698.070018) can1 08FE6E0B#FFFEFFFEFFFEFFFE
(1589326698.070581) can1 18F0010B#C0FF33FFFF500B3F
(1589326698.071181) can1 18FEBF0B#FFFEFFFFFFFFFFFF
(1589326698.090047) can1 08FE6E0B#FFFEFFFEFFFEFFFE
(1589326698.110046) can1 08FE6E0B#FFFEFFFEFFFEFFFE
(1589326698.130060) can1 08FE6E0B#FFFEFFFEFFFEFFFE
(1589326698.150052) can1 08FE6E0B#FFFEFFFEFFFEFFFE
(1589326698.170054) can1 08FE6E0B#FFFEFFFEFFFEFFFE
(1589326698.170893) can1 18F0010B#C0FF33FFFF500B3F
(1589326698.171739) can1 18FEBF0B#FFFEFFFFFFFFFFFF
(1589326698.190053) can1 08FE6E0B#FFFEFFFEFFFEFFFE
(1589326698.210045) can1 08FE6E0B#FFFEFFFEFFFEFFFE
(1589326698.230086) can1 08FE6E0B#FFFEFFFEFFFEFFFE
(1589326698.250075) can1 08FE6E0B#FFFEFFFEFFFEFFFE
(1589326698.270071) can1 08FE6E0B#FFFEFFFEFFFEFFFE
(1589326698.270578) can1 18F0010B#C0FF33FFFF500B3F
(1589326698.271180) can1 18FEBF0B#FFFEFFFFFFFFFFFF
(1589326698.280893) can1 18FECA25#00FF00000000FFFF
(1589326698.281418) can1 00F18F25#00FEFEFFFFFFFBFF
(1589326698.290070) can1 08FE6E0B#FFFEFFFEFFFEFFFE
(1589326698.310048) can1 08FE6E0B#FFFEFFFEFFFEFFFE
(1589326698.330071) can1 08FE6E0B#FFFEFFFEFFFEFFFE
(1589326698.350057) can1 08FE6E0B#FFFEFFFEFFFEFFFE
(1589326698.363013) can1 18ECFF0B#20220005FFCAFE00
(1589326698.370050) can1 08FE6E0B#FFFEFFFEFFFEFFFE
(1589326698.370610) can1 18F0010B#C0FF33FFFF500B3F
(1589326698.371176) can1 18FEBF0B#FFFEFFFFFFFFFFFF
(1589326698.386553) can1 00D4258B#06054EA27DF755AE
(1589326698.387079) can1 00D48B25#06054EA27DF755AE
(1589326698.387680) can1 18FECA8B#00FF00000000FFFF
(1589326698.388320) can1 00F18F0B#00FEFEFFFFFFFBFF
(1589326698.388891) can1 00D42580#0605B423D45A03AD
(1589326698.389400) can1 00D4258F#06056EDCE21CC1F3
(1589326698.390037) can1 00D48025#0605B423D45A03AD
(1589326698.390501) can1 00D48F25#06056EDCE21CC1F3
(1589326698.391091) can1 08FE6E0B#FFFEFFFEFFFEFFFE
(1589326698.391705) can1 18FECA80#00FF00000000FFFF
(1589326698.392433) can1 00F18F00#00FEFEFFFFFFFBFF
(1589326698.410110) can1 08FE6E0B#FFFEFFFEFFFEFFFE
(1589326698.412692) can1 18EBFF0B#0104FF2B030D7E15
(1589326698.430069) can1 08FE6E0B#FFFEFFFEFFFEFFFE
(1589326698.450053) can1 08FE6E0B#FFFEFFFEFFFEFFFE
(1589326698.462687) can1 18EBFF0B#0203027E1603027E
(1589326698.470051) can1 08FE6E0B#FFFEFFFEFFFEFFFE
(1589326698.470610) can1 18F0010B#C0FF33FFFF500B3F
(1589326698.471210) can1 18FEBF0B#FFFEFFFFFFFFFFFF
(1589326698.490089) can1 08FE6E0B#FFFEFFFEFFFEFFFE
(1589326698.510052) can1 08FE6E0B#FFFEFFFEFFFEFFFE
(1589326698.512673) can1 18EBFF0B#031703027E180302
(1589326698.530065) can1 08FE6E0B#FFFEFFFEFFFEFFFE
(1589326698.550065) can1 08FE6E0B#FFFEFFFEFFFEFFFE
(1589326698.562681) can1 18EBFF0B#047E2203047E7F02
(1589326698.570040) can1 08FE6E0B#FFFEFFFEFFFEFFFE
(1589326698.570600) can1 18F0010B#C0FF33FFFF500B3F
(1589326698.571200) can1 18FEBF0B#FFFEFFFFFFFFFFFF
(1589326698.590038) can1 08FE6E0B#FFFEFFFEFFFEFFFE
(1589326698.610066) can1 08FE6E0B#FFFEFFFEFFFEFFFE
(1589326698.612680) can1 18EBFF0B#05057E15040700FF
(1589326698.630056) can1 08FE6E0B#FFFEFFFEFFFEFFFE
(1589326698.650068) can1 08FE6E0B#FFFEFFFEFFFEFFFE
(1589326698.670052) can1 08FE6E0B#FFFEFFFEFFFEFFFE
(1589326698.670610) can1 18F0010B#C0FF33FFFF500B3F
(1589326698.671180) can1 18FEBF0B#FFFEFFFFFFFFFFFF
(1589326698.690071) can1 08FE6E0B#FFFEFFFEFFFEFFFE
(1589326698.710054) can1 08FE6E0B#FFFEFFFEFFFEFFFE
(1589326698.730051) can1 08FE6E0B#FFFEFFFEFFFEFFFE
(1589326698.750053) can1 08FE6E0B#FFFEFFFEFFFEFFFE
(1589326698.770075) can1 08FE6E0B#FFFEFFFEFFFEFFFE
(1589326698.770598) can1 18F0010B#C0FF33FFFF500B3F
(1589326698.771177) can1 18FEBF0B#FFFEFFFFFFFFFFFF
(1589326698.790053) can1 08FE6E0B#FFFEFFFEFFFEFFFE
(1589326698.810087) can1 08FE6E0B#FFFEFFFEFFFEFFFE
(1589326698.830067) can1 08FE6E0B#FFFEFFFEFFFEFFFE
(1589326698.850041) can1 08FE6E0B#FFFEFFFEFFFEFFFE
(1589326698.870065) can1 08FE6E0B#FFFEFFFEFFFEFFFE
(1589326698.870666) can1 18F0010B#C0FF33FFFF500B3F
(1589326698.871239) can1 18FEBF0B#FFFEFFFFFFFFFFFF
(1589326698.890065) can1 08FE6E0B#FFFEFFFEFFFEFFFE
(1589326698.910041) can1 08FE6E0B#FFFEFFFEFFFEFFFE
(1589326698.930041) can1 08FE6E0B#FFFEFFFEFFFEFFFE
(1589326698.950040) can1 08FE6E0B#FFFEFFFEFFFEFFFE
(1589326698.970066) can1 08FE6E0B#FFFEFFFEFFFEFFFE
(1589326698.970598) can1 18F0010B#C0FF33FFFF500B3F
(1589326698.971200) can1 18FEBF0B#FFFEFFFFFFFFFFFF
(1589326698.990051) can1 08FE6E0B#FFFEFFFEFFFEFFFE
(1589326699.010051) can1 08FE6E0B#FFFEFFFEFFFEFFFE
(1589326699.030087) can1 08FE6E0B#FFFEFFFEFFFEFFFE
(1589326699.050051) can1 08FE6E0B#FFFEFFFEFFFEFFFE
(1589326699.070061) can1 08FE6E0B#FFFEFFFEFFFEFFFE
(1589326699.070621) can1 18F0010B#C0FF33FFFF500B3F
(1589326699.071460) can1 18FEBF0B#FFFEFFFFFFFFFFFF
(1589326699.090054) can1 08FE6E0B#FFFEFFFEFFFEFFFE
(1589326699.110053) can1 08FE6E0B#FFFEFFFEFFFEFFFE
(1589326699.130052) can1 08FE6E0B#FFFEFFFEFFFEFFFE
(1589326699.150051) can1 08FE6E0B#FFFEFFFEFFFEFFFE
(1589326699.170052) can1 08FE6E0B#FFFEFFFEFFFEFFFE
(1589326699.170610) can1 18F0010B#C0FF33FFFF500B3F
(1589326699.171180) can1 18FEBF0B#FFFEFFFFFFFFFFFF
(1589326699.190071) can1 08FE6E0B#FFFEFFFEFFFEFFFE
(1589326699.210067) can1 08FE6E0B#FFFEFFFEFFFEFFFE
(1589326699.230065) can1 08FE6E0B#FFFEFFFEFFFEFFFE
(1589326699.250066) can1 08FE6E0B#FFFEFFFEFFFEFFFE
(1589326699.270067) can1 08FE6E0B#FFFEFFFEFFFEFFFE
(1589326699.270925) can1 18F0010B#C0FF33FFFF500B3F
(1589326699.271781) can1 18FEBF0B#FFFEFFFFFFFFFFFF
(1589326699.280851) can1 18FECA25#00FF00000000FFFF
(1589326699.281445) can1 00F18F25#00FEFEFFFFFFFBFF
(1589326699.290095) can1 08FE6E0B#FFFEFFFEFFFEFFFE
(1589326699.310088) can1 08FE6E0B#FFFEFFFEFFFEFFFE
(1589326699.330067) can1 08FE6E0B#FFFEFFFEFFFEFFFE
(1589326699.350088) can1 08FE6E0B#FFFEFFFEFFFEFFFE
(1589326699.363012) can1 18ECFF0B#20220005FFCAFE00
(1589326699.370060) can1 08FE6E0B#FFFEFFFEFFFEFFFE
(1589326699.370621) can1 18F0010B#C0FF33FFFF500B3F
(1589326699.371221) can1 18FEBF0B#FFFEFFFFFFFFFFFF
(1589326699.386532) can1 00D4258B#060509276F3D9642
(1589326699.387059) can1 00D48B25#060509276F3D9642
(1589326699.387661) can1 18FECA8B#00FF00000000FFFF
(1589326699.388329) can1 00F18F0B#00FEFEFFFFFFFBFF
(1589326699.388892) can1 00D42580#06051A286F8143D9
(1589326699.389421) can1 00D4258F#0605430E9C6DC1CC
(1589326699.389987) can1 00D48025#06051A286F8143D9
(1589326699.390499) can1 00D48F25#0605430E9C6DC1CC
(1589326699.391107) can1 08FE6E0B#FFFEFFFEFFFEFFFE
(1589326699.391680) can1 18FECA80#00FF00000000FFFF
(1589326699.392432) can1 00F18F00#00FEFEFFFFFFFBFF
(1589326699.410057) can1 08FE6E0B#FFFEFFFEFFFEFFFE
(1589326699.412708) can1 18EBFF0B#0104FF2B030D7E15
(1589326699.430072) can1 08FE6E0B#FFFEFFFEFFFEFFFE
(1589326699.450059) can1 08FE6E0B#FFFEFFFEFFFEFFFE
(1589326699.462694) can1 18EBFF0B#0203027E1603027E
(1589326699.470061) can1 08FE6E0B#FFFEFFFEFFFEFFFE
(1589326699.470618) can1 18F0010B#C0FF33FFFF500B3F
(1589326699.471610) can1 18FEBF0B#FFFEFFFFFFFFFFFF
(1589326699.490054) can1 08FE6E0B#FFFEFFFEFFFEFFFE
(1589326699.510052) can1 08FE6E0B#FFFEFFFEFFFEFFFE
(1589326699.512688) can1 18EBFF0B#031703027E180302
(1589326699.530086) can1 08FE6E0B#FFFEFFFEFFFEFFFE
(1589326699.550051) can1 08FE6E0B#FFFEFFFEFFFEFFFE
(1589326699.562725) can1 18EBFF0B#047E2203047E7F02
(1589326699.570050) can1 08FE6E0B#FFFEFFFEFFFEFFFE
(1589326699.570899) can1 18F0010B#C0FF33FFFF500B3F
(1589326699.571739) can1 18FEBF0B#FFFEFFFFFFFFFFFF
(1589326699.590433) can1 08FE6E0B#FFFEFFFEFFFEFFFE
(1589326699.610051) can1 08FE6E0B#FFFEFFFEFFFEFFFE
(1589326699.612691) can1 18EBFF0B#05057E15040700FF
(1589326699.630086) can1 08FE6E0B#FFFEFFFEFFFEFFFE
(1589326699.650061) can1 08FE6E0B#FFFEFFFEFFFEFFFE
(1589326699.670061) can1 08FE6E0B#FFFEFFFEFFFEFFFE
(1589326699.670621) can1 18F0010B#C0FF33FFFF500B3F
(1589326699.671210) can1 18FEBF0B#FFFEFFFFFFFFFFFF
(1589326699.690051) can1 08FE6E0B#FFFEFFFEFFFEFFFE
(1589326699.710060) can1 08FE6E0B#FFFEFFFEFFFEFFFE
(1589326699.730051) can1 08FE6E0B#FFFEFFFEFFFEFFFE
(1589326699.750061) can1 08FE6E0B#FFFEFFFEFFFEFFFE
(1589326699.770088) can1 08FE6E0B#FFFEFFFEFFFEFFFE
(1589326699.770618) can1 18F0010B#C0FF33FFFF500B3F
(1589326699.771211) can1 18FEBF0B#FFFEFFFFFFFFFFFF
(1589326699.790058) can1 08FE6E0B#FFFEFFFEFFFEFFFE
(1589326699.810068) can1 08FE6E0B#FFFEFFFEFFFEFFFE
(1589326699.830066) can1 08FE6E0B#FFFEFFFEFFFEFFFE
(1589326699.850065) can1 08FE6E0B#FFFEFFFEFFFEFFFE
(1589326699.870040) can1 08FE6E0B#FFFEFFFEFFFEFFFE
(1589326699.870921) can1 18F0010B#C0FF33FFFF500B3F
(1589326699.871760) can1 18FEBF0B#FFFEFFFFFFFFFFFF
(1589326699.890072) can1 08FE6E0B#FFFEFFFEFFFEFFFE
(1589326699.910041) can1 08FE6E0B#FFFEFFFEFFFEFFFE
(1589326699.930041) can1 08FE6E0B#FFFEFFFEFFFEFFFE
(1589326699.950066) can1 08FE6E0B#FFFEFFFEFFFEFFFE
(1589326699.970072) can1 08FE6E0B#FFFEFFFEFFFEFFFE
(1589326699.970666) can1 18F0010B#C0FF33FFFF500B3F
(1589326699.971510) can1 18FEBF0B#FFFEFFFFFFFFFFFF
(1589326699.990081) can1 08FE6E0B#FFFEFFFEFFFEFFFE
(1589326700.010040) can1 08FE6E0B#FFFEFFFEFFFEFFFE
(1589326700.030065) can1 08FE6E0B#FFFEFFFEFFFEFFFE
(1589326700.050067) can1 08FE6E0B#FFFEFFFEFFFEFFFE
(1589326700.070040) can1 08FE6E0B#FFFEFFFEFFFEFFFE
(1589326700.070600) can1 18F0010B#C0FF33FFFF500B3F
(1589326700.071200) can1 18FEBF0B#FFFEFFFFFFFFFFFF
(1589326700.090096) can1 08FE6E0B#FFFEFFFEFFFEFFFE
(1589326700.110089) can1 08FE6E0B#FFFEFFFEFFFEFFFE
(1589326700.130086) can1 08FE6E0B#FFFEFFFEFFFEFFFE
(1589326700.150085) can1 08FE6E0B#FFFEFFFEFFFEFFFE
(1589326700.170061) can1 08FE6E0B#FFFEFFFEFFFEFFFE
(1589326700.170939) can1 18F0010B#C0FF33FFFF500B3F
(1589326700.171780) can1 18FEBF0B#FFFEFFFFFFFFFFFF
(1589326700.190087) can1 08FE6E0B#FFFEFFFEFFFEFFFE
(1589326700.210088) can1 08FE6E0B#FFFEFFFEFFFEFFFE
(1589326700.230061) can1 08FE6E0B#FFFEFFFEFFFEFFFE
(1589326700.250061) can1 08FE6E0B#FFFEFFFEFFFEFFFE
(1589326700.270061) can1 08FE6E0B#FFFEFFFEFFFEFFFE
(1589326700.270620) can1 18F0010B#C0FF33FFFF500B3F
(1589326700.271211) can1 18FEBF0B#FFFEFFFFFFFFFFFF
(1589326700.280833) can1 18FECA25#00FF00000000FFFF
(1589326700.281400) can1 00F18F25#00FEFEFFFFFFFBFF
(1589326700.290091) can1 08FE6E0B#FFFEFFFEFFFEFFFE
(1589326700.310086) can1 08FE6E0B#FFFEFFFEFFFEFFFE
(1589326700.330086) can1 08FE6E0B#FFFEFFFEFFFEFFFE
(1589326700.350060) can1 08FE6E0B#FFFEFFFEFFFEFFFE
(1589326700.363019) can1 18ECFF0B#20220005FFCAFE00
(1589326700.370086) can1 08FE6E0B#FFFEFFFEFFFEFFFE
(1589326700.370617) can1 18F0010B#C0FF33FFFF500B3F
(1589326700.371220) can1 18FEBF0B#FFFEFFFFFFFFFFFF
(1589326700.386549) can1 00D4258B#0605D0D9B83DFC07
(1589326700.387078) can1 00D48B25#0605D0D9B83DFC07
(1589326700.387670) can1 18FECA8B#00FF00000000FFFF
(1589326700.388312) can1 00F18F0B#00FEFEFFFFFFFBFF
(1589326700.388839) can1 00D42580#0605D1F90A5AEC0B
(1589326700.389377) can1 00D4258F#060561385BA7C743
(1589326700.389959) can1 00D48025#0605D1F90A5AEC0B
(1589326700.390490) can1 00D48F25#060561385BA7C743
(1589326700.391059) can1 08FE6E0B#FFFEFFFEFFFEFFFE
(1589326700.391706) can1 18FECA80#00FF00000000FFFF
(1589326700.392447) can1 00F18F00#00FEFEFFFFFFFBFF
(1589326700.410149) can1 08FE6E0B#FFFEFFFEFFFEFFFE
(1589326700.412706) can1 18EBFF0B#0104FF2B030D7E15
(1589326700.430110) can1 08FE6E0B#FFFEFFFEFFFEFFFE
(1589326700.450089) can1 08FE6E0B#FFFEFFFEFFFEFFFE
(1589326700.462726) can1 18EBFF0B#0203027E1603027E
(1589326700.470060) can1 08FE6E0B#FFFEFFFEFFFEFFFE
(1589326700.470621) can1 18F0010B#C0FF33FFFF500B3F
(1589326700.471220) can1 18FEBF0B#FFFEFFFFFFFFFFFF
(1589326700.490072) can1 08FE6E0B#FFFEFFFEFFFEFFFE
(1589326700.510065) can1 08FE6E0B#FFFEFFFEFFFEFFFE
(1589326700.512706) can1 18EBFF0B#031703027E180302
(1589326700.530085) can1 08FE6E0B#FFFEFFFEFFFEFFFE
(1589326700.550061) can1 08FE6E0B#FFFEFFFEFFFEFFFE
(1589326700.562731) can1 18EBFF0B#047E2203047E7F02
(1589326700.570060) can1 08FE6E0B#FFFEFFFEFFFEFFFE
(1589326700.570621) can1 18F0010B#C0FF33FFFF500B3F
(1589326700.571220) can1 18FEBF0B#FFFEFFFFFFFFFFFF
(1589326700.590088) can1 08FE6E0B#FFFEFFFEFFFEFFFE
(1589326700.610072) can1 08FE6E0B#FFFEFFFEFFFEFFFE
(1589326700.612680) can1 18EBFF0B#05057E15040700FF
(1589326700.630041) can1 08FE6E0B#FFFEFFFEFFFEFFFE
(1589326700.650070) can1 08FE6E0B#FFFEFFFEFFFEFFFE
(1589326700.670059) can1 08FE6E0B#FFFEFFFEFFFEFFFE
(1589326700.670740) can1 18F0010B#C0FF33FFFF500B3F
(1589326700.671579) can1 18FEBF0B#FFFEFFFFFFFFFFFF
(1589326700.690086) can1 08FE6E0B#FFFEFFFEFFFEFFFE
(1589326700.710085) can1 08FE6E0B#FFFEFFFEFFFEFFFE
(1589326700.730109) can1 08FE6E0B#FFFEFFFEFFFEFFFE
(1589326700.750089) can1 08FE6E0B#FFFEFFFEFFFEFFFE
(1589326700.770087) can1 08FE6E0B#FFFEFFFEFFFEFFFE
(1589326700.770620) can1 18F0010B#C0FF33FFFF500B3F
(1589326700.771221) can1 18FEBF0B#FFFEFFFFFFFFFFFF
(1589326700.790085) can1 08FE6E0B#FFFEFFFEFFFEFFFE
(1589326700.810073) can1 08FE6E0B#FFFEFFFEFFFEFFFE
(1589326700.830070) can1 08FE6E0B#FFFEFFFEFFFEFFFE
(1589326700.850061) can1 08FE6E0B#FFFEFFFEFFFEFFFE
(1589326700.870086) can1 08FE6E0B#FFFEFFFEFFFEFFFE
(1589326700.870618) can1 18F0010B#C0FF33FFFF500B3F
(1589326700.871260) can1 18FEBF0B#FFFEFFFFFFFFFFFF
(1589326700.890085) can1 08FE6E0B#FFFEFFFEFFFEFFFE
(1589326700.910086) can1 08FE6E0B#FFFEFFFEFFFEFFFE
(1589326700.930086) can1 08FE6E0B#FFFEFFFEFFFEFFFE
(1589326700.950092) can1 08FE6E0B#FFFEFFFEFFFEFFFE
(1589326700.970057) can1 08FE6E0B#FFFEFFFEFFFEFFFE
(1589326700.970847) can1 18F0010B#C0FF33FFFF500B3F
(1589326700.971708) can1 18FEBF0B#FFFEFFFFFFFFFFFF
(1589326700.990068) can1 08FE6E0B#FFFEFFFEFFFEFFFE
(1589326701.010069) can1 08FE6E0B#FFFEFFFEFFFEFFFE
(1589326701.030107) can1 08FE6E0B#FFFEFFFEFFFEFFFE
(1589326701.050087) can1 08FE6E0B#FFFEFFFEFFFEFFFE
(1589326701.070085) can1 08FE6E0B#FFFEFFFEFFFEFFFE
(1589326701.070646) can1 18F0010B#C0FF33FFFF500B3F
(1589326701.071249) can1 18FEBF0B#FFFEFFFFFFFFFFFF
(1589326701.090086) can1 08FE6E0B#FFFEFFFEFFFEFFFE
(1589326701.110086) can1 08FE6E0B#FFFEFFFEFFFEFFFE
(1589326701.130086) can1 08FE6E0B#FFFEFFFEFFFEFFFE
(1589326701.150060) can1 08FE6E0B#FFFEFFFEFFFEFFFE
(1589326701.170060) can1 08FE6E0B#FFFEFFFEFFFEFFFE
(1589326701.170620) can1 18F0010B#C0FF33FFFF500B3F
(1589326701.171221) can1 18FEBF0B#FFFEFFFFFFFFFFFF
(1589326701.190061) can1 08FE6E0B#FFFEFFFEFFFEFFFE
(1589326701.210086) can1 08FE6E0B#FFFEFFFEFFFEFFFE
(1589326701.230092) can1 08FE6E0B#FFFEFFFEFFFEFFFE
(1589326701.250088) can1 08FE6E0B#FFFEFFFEFFFEFFFE
(1589326701.270085) can1 08FE6E0B#FFFEFFFEFFFEFFFE
(1589326701.270647) can1 18F0010B#C0FF33FFFF500B3F
(1589326701.271251) can1 18FEBF0B#FFFEFFFFFFFFFFFF
(1589326701.280846) can1 18FECA25#00FF00000000FFFF
(1589326701.281411) can1 00F18F25#00FEFEFFFFFFFBFF
(1589326701.290093) can1 08FE6E0B#FFFEFFFEFFFEFFFE
(1589326701.310089) can1 08FE6E0B#FFFEFFFEFFFEFFFE
(1589326701.330092) can1 08FE6E0B#FFFEFFFEFFFEFFFE
(1589326701.350079) can1 08FE6E0B#FFFEFFFEFFFEFFFE
(1589326701.363025) can1 18ECFF0B#20220005FFCAFE00
(1589326701.370071) can1 08FE6E0B#FFFEFFFEFFFEFFFE
(1589326701.370920) can1 18F0010B#C0FF33FFFF500B3F
(1589326701.371759) can1 18FEBF0B#FFFEFFFFFFFFFFFF
(1589326701.386526) can1 00D4258B#06059019A97A6307
(1589326701.387059) can1 00D48B25#06059019A97A6307
(1589326701.387651) can1 18FECA8B#00FF00000000FFFF
(1589326701.388261) can1 00F18F0B#00FEFEFFFFFFFBFF
(1589326701.388818) can1 00D42580#060526B3A39655E6
(1589326701.389372) can1 00D4258F#0605EB6E3E73D1B9
(1589326701.389971) can1 00D48025#060526B3A39655E6
(1589326701.390440) can1 00D48F25#0605EB6E3E73D1B9
(1589326701.391034) can1 08FE6E0B#FFFEFFFEFFFEFFFE
(1589326701.391645) can1 18FECA80#00FF00000000FFFF
(1589326701.392373) can1 00F18F00#00FEFEFFFFFFFBFF
(1589326701.410110) can1 08FE6E0B#FFFEFFFEFFFEFFFE
(1589326701.412726) can1 18EBFF0B#0104FF2B030D7E15
(1589326701.430101) can1 08FE6E0B#FFFEFFFEFFFEFFFE
(1589326701.450074) can1 08FE6E0B#FFFEFFFEFFFEFFFE
(1589326701.462726) can1 18EBFF0B#0203027E1603027E
(1589326701.470060) can1 08FE6E0B#FFFEFFFEFFFEFFFE
(1589326701.470621) can1 18F0010B#C0FF33FFFF500B3F
(1589326701.471219) can1 18FEBF0B#FFFEFFFFFFFFFFFF
(1589326701.490106) can1 08FE6E0B#FFFEFFFEFFFEFFFE
(1589326701.510070) can1 08FE6E0B#FFFEFFFEFFFEFFFE
(1589326701.512701) can1 18EBFF0B#031703027E180302
(1589326701.530060) can1 08FE6E0B#FFFEFFFEFFFEFFFE
(1589326701.550057) can1 08FE6E0B#FFFEFFFEFFFEFFFE
(1589326701.562732) can1 18EBFF0B#047E2203047E7F02
(1589326701.570061) can1 08FE6E0B#FFFEFFFEFFFEFFFE
(1589326701.570620) can1 18F0010B#C0FF33FFFF500B3F
(1589326701.571220) can1 18FEBF0B#FFFEFFFFFFFFFFFF
(1589326701.590086) can1 08FE6E0B#FFFEFFFEFFFEFFFE
(1589326701.610058) can1 08FE6E0B#FFFEFFFEFFFEFFFE
(1589326701.612701) can1 18EBFF0B#05057E15040700FF
(1589326701.630060) can1 08FE6E0B#FFFEFFFEFFFEFFFE
(1589326701.650061) can1 08FE6E0B#FFFEFFFEFFFEFFFE
(1589326701.670060) can1 08FE6E0B#FFFEFFFEFFFEFFFE
(1589326701.670620) can1 18F0010B#C0FF33FFFF500B3F
(1589326701.671216) can1 18FEBF0B#FFFEFFFFFFFFFFFF
(1589326701.690060) can1 08FE6E0B#FFFEFFFEFFFEFFFE
(1589326701.710060) can1 08FE6E0B#FFFEFFFEFFFEFFFE
(1589326701.730109) can1 08FE6E0B#FFFEFFFEFFFEFFFE
(1589326701.750106) can1 08FE6E0B#FFFEFFFEFFFEFFFE
(1589326701.770071) can1 08FE6E0B#FFFEFFFEFFFEFFFE
(1589326701.770640) can1 18F0010B#C0FF33FFFF500B3F
(1589326701.771241) can1 18FEBF0B#FFFEFFFFFFFFFFFF
(1589326701.790105) can1 08FE6E0B#FFFEFFFEFFFEFFFE
(1589326701.810080) can1 08FE6E0B#FFFEFFFEFFFEFFFE
(1589326701.830096) can1 08FE6E0B#FFFEFFFEFFFEFFFE
(1589326701.850089) can1 08FE6E0B#FFFEFFFEFFFEFFFE
(1589326701.870090) can1 08FE6E0B#FFFEFFFEFFFEFFFE
(1589326701.870618) can1 18F0010B#C0FF33FFFF500B3F
(1589326701.871221) can1 18FEBF0B#FFFEFFFFFFFFFFFF
(1589326701.890085) can1 08FE6E0B#FFFEFFFEFFFEFFFE
(1589326701.910086) can1 08FE6E0B#FFFEFFFEFFFEFFFE
(1589326701.930101) can1 08FE6E0B#FFFEFFFEFFFEFFFE
(1589326701.950089) can1 08FE6E0B#FFFEFFFEFFFEFFFE
(1589326701.970086) can1 08FE6E0B#FFFEFFFEFFFEFFFE
(1589326701.970621) can1 18F0010B#C0FF33FFFF500B3F
(1589326701.971251) can1 18FEBF0B#FFFEFFFFFFFFFFFF
(1589326701.990085) can1 08FE6E0B#FFFEFFFEFFFEFFFE
(1589326702.010061) can1 08FE6E0B#FFFEFFFEFFFEFFFE
(1589326702.030087) can1 08FE6E0B#FFFEFFFEFFFEFFFE
(1589326702.050090) can1 08FE6E0B#FFFEFFFEFFFEFFFE
(1589326702.070106) can1 08FE6E0B#FFFEFFFEFFFEFFFE
(1589326702.070721) can1 18F0010B#C0FF33FFFF500B3F
(1589326702.071585) can1 18FEBF0B#FFFEFFFFFFFFFFFF
(1589326702.090105) can1 08FE6E0B#FFFEFFFEFFFEFFFE
(1589326702.110093) can1 08FE6E0B#FFFEFFFEFFFEFFFE
(1589326702.130086) can1 08FE6E0B#FFFEFFFEFFFEFFFE
(1589326702.150094) can1 08FE6E0B#FFFEFFFEFFFEFFFE
(1589326702.170085) can1 08FE6E0B#FFFEFFFEFFFEFFFE
(1589326702.170621) can1 18F0010B#C0FF33FFFF500B3F
(1589326702.171220) can1 18FEBF0B#FFFEFFFFFFFFFFFF
(1589326702.190086) can1 08FE6E0B#FFFEFFFEFFFEFFFE
(1589326702.210079) can1 08FE6E0B#FFFEFFFEFFFEFFFE
(1589326702.230086) can1 08FE6E0B#FFFEFFFEFFFEFFFE
(1589326702.250060) can1 08FE6E0B#FFFEFFFEFFFEFFFE
(1589326702.270091) can1 08FE6E0B#FFFEFFFEFFFEFFFE
(1589326702.270651) can1 18F0010B#C0FF33FFFF500B3F
(1589326702.271221) can1 18FEBF0B#FFFEFFFFFFFFFFFF
(1589326702.280810) can1 18FECA25#00FF00000000FFFF
(1589326702.281406) can1 00F18F25#00FEFEFFFFFFFBFF
(1589326702.290112) can1 08FE6E0B#FFFEFFFEFFFEFFFE
(1589326702.310094) can1 08FE6E0B#FFFEFFFEFFFEFFFE
(1589326702.330108) can1 08FE6E0B#FFFEFFFEFFFEFFFE
(1589326702.350107) can1 08FE6E0B#FFFEFFFEFFFEFFFE
(1589326702.363030) can1 18ECFF0B#20220005FFCAFE00
(1589326702.370080) can1 08FE6E0B#FFFEFFFEFFFEFFFE
(1589326702.370680) can1 18F0010B#C0FF33FFFF500B3F
(1589326702.371521) can1 18FEBF0B#FFFEFFFFFFFFFFFF
(1589326702.386506) can1 00D4258B#0605193661DE66FE
(1589326702.387039) can1 00D48B25#0605193661DE66FE
(1589326702.387629) can1 18FECA8B#00FF00000000FFFF
(1589326702.388280) can1 00F18F0B#00FEFEFFFFFFFBFF
(1589326702.388839) can1 00D42580#0605328B39475897
(1589326702.389392) can1 00D4258F#0605337672DA89A9
(1589326702.390034) can1 00D48025#0605328B39475897
(1589326702.390512) can1 00D48F25#0605337672DA89A9
(1589326702.391041) can1 08FE6E0B#FFFEFFFEFFFEFFFE
(1589326702.391637) can1 18FECA80#00FF00000000FFFF
(1589326702.392594) can1 00F18F00#00FEFEFFFFFFFBFF
(1589326702.410151) can1 08FE6E0B#FFFEFFFEFFFEFFFE
(1589326702.412727) can1 18EBFF0B#0104FF2B030D7E15
(1589326702.430107) can1 08FE6E0B#FFFEFFFEFFFEFFFE
(1589326702.450074) can1 08FE6E0B#FFFEFFFEFFFEFFFE
(1589326702.462711) can1 18EBFF0B#0203027E1603027E
(1589326702.470058) can1 08FE6E0B#FFFEFFFEFFFEFFFE
(1589326702.470672) can1 18F0010B#C0FF33FFFF500B3F
(1589326702.471237) can1 18FEBF0B#FFFEFFFFFFFFFFFF
(1589326702.490106) can1 08FE6E0B#FFFEFFFEFFFEFFFE
(1589326702.510106) can1 08FE6E0B#FFFEFFFEFFFEFFFE
(1589326702.512731) can1 18EBFF0B#031703027E180302
(1589326702.530086) can1 08FE6E0B#FFFEFFFEFFFEFFFE
(1589326702.550092) can1 08FE6E0B#FFFEFFFEFFFEFFFE
(1589326702.562741) can1 18EBFF0B#047E2203047E7F02
(1589326702.570085) can1 08FE6E0B#FFFEFFFEFFFEFFFE
(1589326702.570621) can1 18F0010B#C0FF33FFFF500B3F
(1589326702.571220) can1 18FEBF0B#FFFEFFFFFFFFFFFF
(1589326702.590094) can1 08FE6E0B#FFFEFFFEFFFEFFFE
(1589326702.610105) can1 08FE6E0B#FFFEFFFEFFFEFFFE
(1589326702.612751) can1 18EBFF0B#05057E15040700FF
(1589326702.630106) can1 08FE6E0B#FFFEFFFEFFFEFFFE
(1589326702.650080) can1 08FE6E0B#FFFEFFFEFFFEFFFE
(1589326702.670080) can1 08FE6E0B#FFFEFFFEFFFEFFFE
(1589326702.670665) can1 18F0010B#C0FF33FFFF500B3F
(1589326702.671269) can1 18FEBF0B#FFFEFFFFFFFFFFFF
(1589326702.690105) can1 08FE6E0B#FFFEFFFEFFFEFFFE
(1589326702.710071) can1 08FE6E0B#FFFEFFFEFFFEFFFE
(1589326702.730086) can1 08FE6E0B#FFFEFFFEFFFEFFFE
(1589326702.750092) can1 08FE6E0B#FFFEFFFEFFFEFFFE
(1589326702.770092) can1 08FE6E0B#FFFEFFFEFFFEFFFE
(1589326702.770851) can1 18F0010B#C0FF33FFFF500B3F
(1589326702.771690) can1 18FEBF0B#FFFEFFFFFFFFFFFF
(1589326702.790061) can1 08FE6E0B#FFFEFFFEFFFEFFFE
(1589326702.810130) can1 08FE6E0B#FFFEFFFEFFFEFFFE
(1589326702.830086) can1 08FE6E0B#FFFEFFFEFFFEFFFE
(1589326702.850061) can1 08FE6E0B#FFFEFFFEFFFEFFFE
(1589326702.870091) can1 08FE6E0B#FFFEFFFEFFFEFFFE
(1589326702.870650) can1 18F0010B#C0FF33FFFF500B3F
(1589326702.871220) can1 18FEBF0B#FFFEFFFFFFFFFFFF
(1589326702.890061) can1 08FE6E0B#FFFEFFFEFFFEFFFE
(1589326702.910090) can1 08FE6E0B#FFFEFFFEFFFEFFFE
(1589326702.930081) can1 08FE6E0B#FFFEFFFEFFFEFFFE
(1589326702.950086) can1 08FE6E0B#FFFEFFFEFFFEFFFE
(1589326702.970091) can1 08FE6E0B#FFFEFFFEFFFEFFFE
(1589326702.970651) can1 18F0010B#C0FF33FFFF500B3F
(1589326702.971219) can1 18FEBF0B#FFFEFFFFFFFFFFFF
(1589326702.990086) can1 08FE6E0B#FFFEFFFEFFFEFFFE
(1589326703.010100) can1 08FE6E0B#FFFEFFFEFFFEFFFE
(1589326703.030086) can1 08FE6E0B#FFFEFFFEFFFEFFFE
(1589326703.050061) can1 08FE6E0B#FFFEFFFEFFFEFFFE
(1589326703.070085) can1 08FE6E0B#FFFEFFFEFFFEFFFE
(1589326703.070646) can1 18F0010B#C0FF33FFFF500B3F
(1589326703.071220) can1 18FEBF0B#FFFEFFFFFFFFFFFF
(1589326703.090091) can1 08FE6E0B#FFFEFFFEFFFEFFFE
(1589326703.110090) can1 08FE6E0B#FFFEFFFEFFFEFFFE
(1589326703.130090) can1 08FE6E0B#FFFEFFFEFFFEFFFE
(1589326703.150090) can1 08FE6E0B#FFFEFFFEFFFEFFFE
(1589326703.170091) can1 08FE6E0B#FFFEFFFEFFFEFFFE
(1589326703.170739) can1 18F0010B#C0FF33FFFF500B3F
(1589326703.171580) can1 18FEBF0B#FFFEFFFFFFFFFFFF
(1589326703.190091) can1 08FE6E0B#FFFEFFFEFFFEFFFE
(1589326703.210086) can1 08FE6E0B#FFFEFFFEFFFEFFFE
(1589326703.230093) can1 08FE6E0B#FFFEFFFEFFFEFFFE
(1589326703.251492) can1 08FE6E0B#FFFEFFFEFFFEFFFE
(1589326703.270112) can1 08FE6E0B#FFFEFFFEFFFEFFFE
(1589326703.270918) can1 18F0010B#C0FF33FFFF500B3F
(1589326703.271760) can1 18FEBF0B#FFFEFFFFFFFFFFFF
(1589326703.280801) can1 18FECA25#00FF00000000FFFF
(1589326703.281387) can1 00F18F25#00FEFEFFFFFFFBFF
(1589326703.290115) can1 08FE6E0B#FFFEFFFEFFFEFFFE
(1589326703.310094) can1 08FE6E0B#FFFEFFFEFFFEFFFE
(1589326703.330085) can1 08FE6E0B#FFFEFFFEFFFEFFFE
(1589326703.350087) can1 08FE6E0B#FFFEFFFEFFFEFFFE
(1589326703.363051) can1 18ECFF0B#20220005FFCAFE00
(1589326703.370125) can1 08FE6E0B#FFFEFFFEFFFEFFFE
(1589326703.370658) can1 18F0010B#C0FF33FFFF500B3F
(1589326703.371260) can1 18FEBF0B#FFFEFFFFFFFFFFFF
(1589326703.386481) can1 00D4258B#060557CF908394B7
(1589326703.387039) can1 00D48B25#060557CF908394B7
(1589326703.387631) can1 18FECA8B#00FF00000000FFFF
(1589326703.388231) can1 00F18F0B#00FEFEFFFFFFFBFF
(1589326703.388788) can1 00D42580#06059E16D00DCA33
(1589326703.389320) can1 00D48025#06059E16D00DCA33
(1589326703.389959) can1 00D4258F#0605A7D62B62E48A
(1589326703.390471) can1 08FE6E0B#FFFEFFFEFFFEFFFE
(1589326703.390999) can1 00D48F25#0605A7D62B62E48A
(1589326703.391599) can1 18FECA80#00FF00000000FFFF
(1589326703.392431) can1 00F18F00#00FEFEFFFFFFFBFF
(1589326703.410275) can1 08FE6E0B#FFFEFFFEFFFEFFFE
(1589326703.412741) can1 18EBFF0B#0104FF2B030D7E15
(1589326703.430287) can1 08FE6E0B#FFFEFFFEFFFEFFFE
(1589326703.450278) can1 08FE6E0B#FFFEFFFEFFFEFFFE
(1589326703.462768) can1 18EBFF0B#0203027E1603027E
(1589326703.470287) can1 08FE6E0B#FFFEFFFEFFFEFFFE
(1589326703.471100) can1 18F0010B#C0FF33FFFF500B3F
(1589326703.471940) can1 18FEBF0B#FFFEFFFFFFFFFFFF
(1589326703.490327) can1 08FE6E0B#FFFEFFFEFFFEFFFE
(1589326703.510267) can1 08FE6E0B#FFFEFFFEFFFEFFFE
(1589326703.512746) can1 18EBFF0B#031703027E180302
(1589326703.530288) can1 08FE6E0B#FFFEFFFEFFFEFFFE
(1589326703.550286) can1 08FE6E0B#FFFEFFFEFFFEFFFE
(1589326703.562772) can1 18EBFF0B#047E2203047E7F02
(1589326703.570261) can1 08FE6E0B#FFFEFFFEFFFEFFFE
(1589326703.570820) can1 18F0010B#C0FF33FFFF500B3F
(1589326703.571420) can1 18FEBF0B#FFFEFFFFFFFFFFFF
(1589326703.590285) can1 08FE6E0B#FFFEFFFEFFFEFFFE
(1589326703.610286) can1 08FE6E0B#FFFEFFFEFFFEFFFE
(1589326703.612766) can1 18EBFF0B#05057E15040700FF
(1589326703.630270) can1 08FE6E0B#FFFEFFFEFFFEFFFE
(1589326703.650273) can1 08FE6E0B#FFFEFFFEFFFEFFFE
(1589326703.670241) can1 08FE6E0B#FFFEFFFEFFFEFFFE
(1589326703.670831) can1 18F0010B#C0FF33FFFF500B3F
(1589326703.671400) can1 18FEBF0B#FFFEFFFFFFFFFFFF
(1589326703.690293) can1 08FE6E0B#FFFEFFFEFFFEFFFE
(1589326703.710267) can1 08FE6E0B#FFFEFFFEFFFEFFFE
(1589326703.730267) can1 08FE6E0B#FFFEFFFEFFFEFFFE
(1589326703.750241) can1 08FE6E0B#FFFEFFFEFFFEFFFE
(1589326703.770305) can1 08FE6E0B#FFFEFFFEFFFEFFFE
(1589326703.770838) can1 18F0010B#C0FF33FFFF500B3F
(1589326703.771430) can1 18FEBF0B#FFFEFFFFFFFFFFFF
(1589326703.790270) can1 08FE6E0B#FFFEFFFEFFFEFFFE
(1589326703.810271) can1 08FE6E0B#FFFEFFFEFFFEFFFE
(1589326703.830241) can1 08FE6E0B#FFFEFFFEFFFEFFFE
(1589326703.850280) can1 08FE6E0B#FFFEFFFEFFFEFFFE
(1589326703.870240) can1 08FE6E0B#FFFEFFFEFFFEFFFE
(1589326703.870800) can1 18F0010B#C0FF33FFFF500B3F
(1589326703.871399) can1 18FEBF0B#FFFEFFFFFFFFFFFF
(1589326703.890315) can1 08FE6E0B#FFFEFFFEFFFEFFFE
(1589326703.910271) can1 08FE6E0B#FFFEFFFEFFFEFFFE
(1589326703.930240) can1 08FE6E0B#FFFEFFFEFFFEFFFE
(1589326703.950269) can1 08FE6E0B#FFFEFFFEFFFEFFFE
(1589326703.970241) can1 08FE6E0B#FFFEFFFEFFFEFFFE
(1589326703.970825) can1 18F0010B#C0FF33FFFF500B3F
(1589326703.971400) can1 18FEBF0B#FFFEFFFFFFFFFFFF
(1589326703.990265) can1 08FE6E0B#FFFEFFFEFFFEFFFE
(1589326704.010241) can1 08FE6E0B#FFFEFFFEFFFEFFFE
(1589326704.030265) can1 08FE6E0B#FFFEFFFEFFFEFFFE
(1589326704.050270) can1 08FE6E0B#FFFEFFFEFFFEFFFE
(1589326704.070241) can1 08FE6E0B#FFFEFFFEFFFEFFFE
(1589326704.070800) can1 18F0010B#C0FF33FFFF500B3F
(1589326704.071429) can1 18FEBF0B#FFFEFFFFFFFFFFFF
(1589326704.090286) can1 08FE6E0B#FFFEFFFEFFFEFFFE
(1589326704.110285) can1 08FE6E0B#FFFEFFFEFFFEFFFE
(1589326704.130287) can1 08FE6E0B#FFFEFFFEFFFEFFFE
(1589326704.150285) can1 08FE6E0B#FFFEFFFEFFFEFFFE
(1589326704.170261) can1 08FE6E0B#FFFEFFFEFFFEFFFE
(1589326704.171141) can1 18F0010B#C0FF33FFFF500B3F
(1589326704.171980) can1 18FEBF0B#FFFEFFFFFFFFFFFF
(1589326704.190287) can1 08FE6E0B#FFFEFFFEFFFEFFFE
(1589326704.210286) can1 08FE6E0B#FFFEFFFEFFFEFFFE
(1589326704.230260) can1 08FE6E0B#FFFEFFFEFFFEFFFE
(1589326704.250259) can1 08FE6E0B#FFFEFFFEFFFEFFFE
(1589326704.270291) can1 08FE6E0B#FFFEFFFEFFFEFFFE
(1589326704.270858) can1 18F0010B#C0FF33FFFF500B3F
(1589326704.271450) can1 18FEBF0B#FFFEFFFFFFFFFFFF
(1589326704.280816) can1 18FECA25#00FF00000000FFFF
(1589326704.281372) can1 00F18F25#00FEFEFFFFFFFBFF
(1589326704.290340) can1 08FE6E0B#FFFEFFFEFFFEFFFE
(1589326704.310288) can1 08FE6E0B#FFFEFFFEFFFEFFFE
(1589326704.330285) can1 08FE6E0B#FFFEFFFEFFFEFFFE
(1589326704.350285) can1 08FE6E0B#FFFEFFFEFFFEFFFE
(1589326704.363086) can1 18ECFF0B#20220005FFCAFE00
(1589326704.370258) can1 08FE6E0B#FFFEFFFEFFFEFFFE
(1589326704.370820) can1 18F0010B#C0FF33FFFF500B3F
(1589326704.371410) can1 18FEBF0B#FFFEFFFFFFFFFFFF
(1589326704.386490) can1 00D4258B#060576BA5FBCE81F
(1589326704.387049) can1 00D48B25#060576BA5FBCE81F
(1589326704.387618) can1 18FECA8B#00FF00000000FFFF
(1589326704.388221) can1 00F18F0B#00FEFEFFFFFFFBFF
(1589326704.388778) can1 00D42580#06054393F350C4FC
(1589326704.389341) can1 00D48025#06054393F350C4FC
(1589326704.389951) can1 00D4258F#0605D8C2B472B5F5
(1589326704.390486) can1 08FE6E0B#FFFEFFFEFFFEFFFE
(1589326704.391011) can1 00D48F25#0605D8C2B472B5F5
(1589326704.391617) can1 18FECA80#00FF00000000FFFF
(1589326704.392340) can1 00F18F00#00FEFEFFFFFFFBFF
(1589326704.410294) can1 08FE6E0B#FFFEFFFEFFFEFFFE
(1589326704.412787) can1 18EBFF0B#0104FF2B030D7E15
(1589326704.430273) can1 08FE6E0B#FFFEFFFEFFFEFFFE
(1589326704.450309) can1 08FE6E0B#FFFEFFFEFFFEFFFE
(1589326704.462787) can1 18EBFF0B#0203027E1603027E
(1589326704.470268) can1 08FE6E0B#FFFEFFFEFFFEFFFE
(1589326704.470826) can1 18F0010B#C0FF33FFFF500B3F
(1589326704.471400) can1 18FEBF0B#FFFEFFFFFFFFFFFF
(1589326704.490266) can1 08FE6E0B#FFFEFFFEFFFEFFFE
(1589326704.510286) can1 08FE6E0B#FFFEFFFEFFFEFFFE
(1589326704.512741) can1 18EBFF0B#031703027E180302
(1589326704.530268) can1 08FE6E0B#FFFEFFFEFFFEFFFE
(1589326704.550272) can1 08FE6E0B#FFFEFFFEFFFEFFFE
(1589326704.562789) can1 18EBFF0B#047E2203047E7F02
(1589326704.570272) can1 08FE6E0B#FFFEFFFEFFFEFFFE
(1589326704.570920) can1 18F0010B#C0FF33FFFF500B3F
(1589326704.571760) can1 18FEBF0B#FFFEFFFFFFFFFFFF
(1589326704.590311) can1 08FE6E0B#FFFEFFFEFFFEFFFE
(1589326704.610286) can1 08FE6E0B#FFFEFFFEFFFEFFFE
(1589326704.612741) can1 18EBFF0B#05057E15040700FF
(1589326704.630287) can1 08FE6E0B#FFFEFFFEFFFEFFFE
(1589326704.650293) can1 08FE6E0B#FFFEFFFEFFFEFFFE
(1589326704.670260) can1 08FE6E0B#FFFEFFFEFFFEFFFE
(1589326704.670845) can1 18F0010B#C0FF33FFFF500B3F
(1589326704.671420) can1 18FEBF0B#FFFEFFFFFFFFFFFF
(1589326704.690261) can1 08FE6E0B#FFFEFFFEFFFEFFFE
(1589326704.710286) can1 08FE6E0B#FFFEFFFEFFFEFFFE
(1589326704.730291) can1 08FE6E0B#FFFEFFFEFFFEFFFE
(1589326704.750286) can1 08FE6E0B#FFFEFFFEFFFEFFFE
(1589326704.770287) can1 08FE6E0B#FFFEFFFEFFFEFFFE
(1589326704.770818) can1 18F0010B#C0FF33FFFF500B3F
(1589326704.771420) can1 18FEBF0B#FFFEFFFFFFFFFFFF
(1589326704.790261) can1 08FE6E0B#FFFEFFFEFFFEFFFE
(1589326704.810285) can1 08FE6E0B#FFFEFFFEFFFEFFFE
(1589326704.830261) can1 08FE6E0B#FFFEFFFEFFFEFFFE
(1589326704.850261) can1 08FE6E0B#FFFEFFFEFFFEFFFE
(1589326704.870261) can1 08FE6E0B#FFFEFFFEFFFEFFFE
(1589326704.870820) can1 18F0010B#C0FF33FFFF500B3F
(1589326704.871420) can1 18FEBF0B#FFFEFFFFFFFFFFFF
(1589326704.890287) can1 08FE6E0B#FFFEFFFEFFFEFFFE
(1589326704.910285) can1 08FE6E0B#FFFEFFFEFFFEFFFE
(1589326704.930260) can1 08FE6E0B#FFFEFFFEFFFEFFFE
(1589326704.950292) can1 08FE6E0B#FFFEFFFEFFFEFFFE
(1589326704.970291) can1 08FE6E0B#FFFEFFFEFFFEFFFE
(1589326704.971210) can1 18F0010B#C0FF33FFFF500B3F
(1589326704.972086) can1 18FEBF0B#FFFEFFFFFFFFFFFF
(1589326704.990286) can1 08FE6E0B#FFFEFFFEFFFEFFFE
(1589326705.010260) can1 08FE6E0B#FFFEFFFEFFFEFFFE
(1589326705.030285) can1 08FE6E0B#FFFEFFFEFFFEFFFE
(1589326705.050288) can1 08FE6E0B#FFFEFFFEFFFEFFFE
(1589326705.070286) can1 08FE6E0B#FFFEFFFEFFFEFFFE
(1589326705.070820) can1 18F0010B#C0FF33FFFF500B3F
(1589326705.071421) can1 18FEBF0B#FFFEFFFFFFFFFFFF
(1589326705.090285) can1 08FE6E0B#FFFEFFFEFFFEFFFE
(1589326705.110260) can1 08FE6E0B#FFFEFFFEFFFEFFFE
(1589326705.130260) can1 08FE6E0B#FFFEFFFEFFFEFFFE
(1589326705.150260) can1 08FE6E0B#FFFEFFFEFFFEFFFE
(1589326705.170261) can1 08FE6E0B#FFFEFFFEFFFEFFFE
(1589326705.171130) can1 18F0010B#C0FF33FFFF500B3F
(1589326705.172010) can1 18FEBF0B#FFFEFFFFFFFFFFFF
(1589326705.190261) can1 08FE6E0B#FFFEFFFEFFFEFFFE
(1589326705.210291) can1 08FE6E0B#FFFEFFFEFFFEFFFE
(1589326705.230260) can1 08FE6E0B#FFFEFFFEFFFEFFFE
(1589326705.250260) can1 08FE6E0B#FFFEFFFEFFFEFFFE
(1589326705.270260) can1 08FE6E0B#FFFEFFFEFFFEFFFE
(1589326705.270891) can1 18F0010B#C0FF33FFFF500B3F
(1589326705.271460) can1 18FEBF0B#FFFEFFFFFFFFFFFF
(1589326705.280781) can1 18FECA25#00FF00000000FFFF
(1589326705.281340) can1 00F18F25#00FEFEFFFFFFFBFF
(1589326705.290316) can1 08FE6E0B#FFFEFFFEFFFEFFFE
(1589326705.310287) can1 08FE6E0B#FFFEFFFEFFFEFFFE
(1589326705.330286) can1 08FE6E0B#FFFEFFFEFFFEFFFE
(1589326705.350288) can1 08FE6E0B#FFFEFFFEFFFEFFFE
(1589326705.363086) can1 18ECFF0B#20220005FFCAFE00
(1589326705.370286) can1 08FE6E0B#FFFEFFFEFFFEFFFE
(1589326705.370821) can1 18F0010B#C0FF33FFFF500B3F
(1589326705.371421) can1 18FEBF0B#FFFEFFFFFFFFFFFF
(1589326705.386460) can1 00D4258B#0605C6BE8BA3906C
(1589326705.387020) can1 00D48B25#0605C6BE8BA3906C
(1589326705.387621) can1 18FECA8B#00FF00000000FFFF
(1589326705.388250) can1 00F18F0B#00FEFEFFFFFFFBFF
(1589326705.388778) can1 00D42580#0605B132AA18BF8D
(1589326705.389365) can1 00D48025#0605B132AA18BF8D
(1589326705.389950) can1 00D4258F#060531FB0C397EE3
(1589326705.390472) can1 08FE6E0B#FFFEFFFEFFFEFFFE
(1589326705.391001) can1 00D48F25#060531FB0C397EE3
(1589326705.391599) can1 18FECA80#00FF00000000FFFF
(1589326705.392400) can1 00F18F00#00FEFEFFFFFFFBFF
(1589326705.410311) can1 08FE6E0B#FFFEFFFEFFFEFFFE
(1589326705.412766) can1 18EBFF0B#0104FF2B030D7E15
(1589326705.430297) can1 08FE6E0B#FFFEFFFEFFFEFFFE
(1589326705.450286) can1 08FE6E0B#FFFEFFFEFFFEFFFE
(1589326705.462770) can1 18EBFF0B#0203027E1603027E
(1589326705.470260) can1 08FE6E0B#FFFEFFFEFFFEFFFE
(1589326705.470821) can1 18F0010B#C0FF33FFFF500B3F
(1589326705.471421) can1 18FEBF0B#FFFEFFFFFFFFFFFF
(1589326705.490286) can1 08FE6E0B#FFFEFFFEFFFEFFFE
(1589326705.510289) can1 08FE6E0B#FFFEFFFEFFFEFFFE
(1589326705.512771) can1 18EBFF0B#031703027E180302
(1589326705.530273) can1 08FE6E0B#FFFEFFFEFFFEFFFE
(1589326705.550280) can1 08FE6E0B#FFFEFFFEFFFEFFFE
(1589326705.562791) can1 18EBFF0B#047E2203047E7F02
(1589326705.570280) can1 08FE6E0B#FFFEFFFEFFFEFFFE
(1589326705.570837) can1 18F0010B#C0FF33FFFF500B3F
(1589326705.571430) can1 18FEBF0B#FFFEFFFFFFFFFFFF
(1589326705.590270) can1 08FE6E0B#FFFEFFFEFFFEFFFE
(1589326705.610315) can1 08FE6E0B#FFFEFFFEFFFEFFFE
(1589326705.612806) can1 18EBFF0B#05057E15040700FF
(1589326705.630287) can1 08FE6E0B#FFFEFFFEFFFEFFFE
(1589326705.650286) can1 08FE6E0B#FFFEFFFEFFFEFFFE
(1589326705.670285) can1 08FE6E0B#FFFEFFFEFFFEFFFE
(1589326705.670846) can1 18F0010B#C0FF33FFFF500B3F
(1589326705.671420) can1 18FEBF0B#FFFEFFFFFFFFFFFF
(1589326705.690260) can1 08FE6E0B#FFFEFFFEFFFEFFFE
(1589326705.710289) can1 08FE6E0B#FFFEFFFEFFFEFFFE
(1589326705.730270) can1 08FE6E0B#FFFEFFFEFFFEFFFE
(1589326705.750271) can1 08FE6E0B#FFFEFFFEFFFEFFFE
(1589326705.770280) can1 08FE6E0B#FFFEFFFEFFFEFFFE
(1589326705.770840) can1 18F0010B#C0FF33FFFF500B3F
(1589326705.771430) can1 18FEBF0B#FFFEFFFFFFFFFFFF
(1589326705.790260) can1 08FE6E0B#FFFEFFFEFFFEFFFE
(1589326705.810286) can1 08FE6E0B#FFFEFFFEFFFEFFFE
(1589326705.830261) can1 08FE6E0B#FFFEFFFEFFFEFFFE
(1589326705.850260) can1 08FE6E0B#FFFEFFFEFFFEFFFE
(1589326705.870260) can1 08FE6E0B#FFFEFFFEFFFEFFFE
(1589326705.870821) can1 18F0010B#C0FF33FFFF500B3F
(1589326705.871420) can1 18FEBF0B#FFFEFFFFFFFFFFFF
(1589326705.890259) can1 08FE6E0B#FFFEFFFEFFFEFFFE
(1589326705.910261) can1 08FE6E0B#FFFEFFFEFFFEFFFE
(1589326705.930291) can1 08FE6E0B#FFFEFFFEFFFEFFFE
(1589326705.950290) can1 08FE6E0B#FFFEFFFEFFFEFFFE
(1589326705.970289) can1 08FE6E0B#FFFEFFFEFFFEFFFE
(1589326705.971009) can1 18F0010B#C0FF33FFFF500B3F
(1589326705.971860) can1 18FEBF0B#FFFEFFFFFFFFFFFF
(1589326705.990291) can1 08FE6E0B#FFFEFFFEFFFEFFFE
(1589326706.010301) can1 08FE6E0B#FFFEFFFEFFFEFFFE
(1589326706.030285) can1 08FE6E0B#FFFEFFFEFFFEFFFE
(1589326706.050289) can1 08FE6E0B#FFFEFFFEFFFEFFFE
(1589326706.070301) can1 08FE6E0B#FFFEFFFEFFFEFFFE
(1589326706.071170) can1 18F0010B#C0FF33FFFF500B3F
(1589326706.072019) can1 18FEBF0B#FFFEFFFFFFFFFFFF
(1589326706.090259) can1 08FE6E0B#FFFEFFFEFFFEFFFE
(1589326706.110291) can1 08FE6E0B#FFFEFFFEFFFEFFFE
(1589326706.130261) can1 08FE6E0B#FFFEFFFEFFFEFFFE
(1589326706.150261) can1 08FE6E0B#FFFEFFFEFFFEFFFE
(1589326706.170291) can1 08FE6E0B#FFFEFFFEFFFEFFFE
(1589326706.170851) can1 18F0010B#C0FF33FFFF500B3F
(1589326706.171420) can1 18FEBF0B#FFFEFFFFFFFFFFFF
(1589326706.190260) can1 08FE6E0B#FFFEFFFEFFFEFFFE
(1589326706.210285) can1 08FE6E0B#FFFEFFFEFFFEFFFE
(1589326706.230290) can1 08FE6E0B#FFFEFFFEFFFEFFFE
(1589326706.250286) can1 08FE6E0B#FFFEFFFEFFFEFFFE
(1589326706.270290) can1 08FE6E0B#FFFEFFFEFFFEFFFE
(1589326706.271009) can1 18F0010B#C0FF33FFFF500B3F
(1589326706.271851) can1 18FEBF0B#FFFEFFFFFFFFFFFF
(1589326706.280780) can1 18FECA25#00FF00000000FFFF
(1589326706.281340) can1 00F18F25#00FEFEFFFFFFFBFF
(1589326706.290315) can1 08FE6E0B#FFFEFFFEFFFEFFFE
(1589326706.310291) can1 08FE6E0B#FFFEFFFEFFFEFFFE
(1589326706.330292) can1 08FE6E0B#FFFEFFFEFFFEFFFE
(1589326706.350326) can1 08FE6E0B#FFFEFFFEFFFEFFFE
(1589326706.363091) can1 18ECFF0B#20220005FFCAFE00
(1589326706.370285) can1 08FE6E0B#FFFEFFFEFFFEFFFE
(1589326706.370820) can1 18F0010B#C0FF33FFFF500B3F
(1589326706.371460) can1 18FEBF0B#FFFEFFFFFFFFFFFF
(1589326706.386459) can1 00D4258B#0605F91A70E8CA81
(1589326706.387020) can1 00D48B25#0605F91A70E8CA81
(1589326706.387611) can1 18FECA8B#00FF00000000FFFF
(1589326706.388220) can1 00F18F0B#00FEFEFFFFFFFBFF
(1589326706.388776) can1 00D42580#0605145B05395ED9
(1589326706.389333) can1 00D4258F#060575BAE373BAFF
(1589326706.389970) can1 00D48025#0605145B05395ED9
(1589326706.390453) can1 00D48F25#060575BAE373BAFF
(1589326706.390981) can1 08FE6E0B#FFFEFFFEFFFEFFFE
(1589326706.391581) can1 18FECA80#00FF00000000FFFF
(1589326706.392355) can1 00F18F00#00FEFEFFFFFFFBFF
(1589326706.410333) can1 08FE6E0B#FFFEFFFEFFFEFFFE
(1589326706.412809) can1 18EBFF0B#0104FF2B030D7E15
(1589326706.430293) can1 08FE6E0B#FFFEFFFEFFFEFFFE
(1589326706.450261) can1 08FE6E0B#FFFEFFFEFFFEFFFE
(1589326706.462781) can1 18EBFF0B#0203027E1603027E
(1589326706.470290) can1 08FE6E0B#FFFEFFFEFFFEFFFE
(1589326706.471139) can1 18F0010B#C0FF33FFFF500B3F
(1589326706.471979) can1 18FEBF0B#FFFEFFFFFFFFFFFF
(1589326706.490300) can1 08FE6E0B#FFFEFFFEFFFEFFFE
(1589326706.510294) can1 08FE6E0B#FFFEFFFEFFFEFFFE
(1589326706.512772) can1 18EBFF0B#031703027E180302
(1589326706.530293) can1 08FE6E0B#FFFEFFFEFFFEFFFE
(1589326706.550287) can1 08FE6E0B#FFFEFFFEFFFEFFFE
(1589326706.562811) can1 18EBFF0B#047E2203047E7F02
(1589326706.570306) can1 08FE6E0B#FFFEFFFEFFFEFFFE
(1589326706.570839) can1 18F0010B#C0FF33FFFF500B3F
(1589326706.571441) can1 18FEBF0B#FFFEFFFFFFFFFFFF
(1589326706.590281) can1 08FE6E0B#FFFEFFFEFFFEFFFE
(1589326706.610293) can1 08FE6E0B#FFFEFFFEFFFEFFFE
(1589326706.612781) can1 18EBFF0B#05057E15040700FF
(1589326706.630260) can1 08FE6E0B#FFFEFFFEFFFEFFFE
(1589326706.650259) can1 08FE6E0B#FFFEFFFEFFFEFFFE
(1589326706.670325) can1 08FE6E0B#FFFEFFFEFFFEFFFE
(1589326706.671061) can1 18F0010B#C0FF33FFFF500B3F
(1589326706.671901) can1 18FEBF0B#FFFEFFFFFFFFFFFF
(1589326706.690287) can1 08FE6E0B#FFFEFFFEFFFEFFFE
(1589326706.710292) can1 08FE6E0B#FFFEFFFEFFFEFFFE
(1589326706.730286) can1 08FE6E0B#FFFEFFFEFFFEFFFE
(1589326706.750300) can1 08FE6E0B#FFFEFFFEFFFEFFFE
(1589326706.770285) can1 08FE6E0B#FFFEFFFEFFFEFFFE
(1589326706.770820) can1 18F0010B#C0FF33FFFF500B3F
(1589326706.771420) can1 18FEBF0B#FFFEFFFFFFFFFFFF
(1589326706.790260) can1 08FE6E0B#FFFEFFFEFFFEFFFE
(1589326706.803741) can1 18EEFF00#0603BF0100000010
(1589326706.810370) can1 08FE6E0B#FFFEFFFEFFFEFFFE
(1589326706.813768) can1 0CF00400#007D7D000000F07D
(1589326706.814791) can1 0CF00300#F10000FFFF0C00FF
(1589326706.815720) can1 18FCFD00#FFFFFFFF0000FFFF
(1589326706.816715) can1 18FEDF00#86FFFFFF7D000000
(1589326706.817349) can1 18EA3100#E6FE00
(1589326706.822779) can1 1CECFF00#20270006FFE3FE00
(1589326706.823768) can1 0CF00400#007D7D000000F07D
(1589326706.824739) can1 0CF00A00#00000000FFFFFFFF
(1589326706.825699) can1 18F0000F#007D7DF3007D0064
(1589326706.826778) can1 18FE9900#C0A6FFFFFFFFFFFF
(1589326706.830339) can1 08FE6E0B#FFFEFFFEFFFEFFFE
(1589326706.833739) can1 0CF00400#007D7D000000F07D
(1589326706.834770) can1 18F00E00#A00FFE71FFFFFFFF
(1589326706.835740) can1 18FEF200#00000000000000FF
(1589326706.836700) can1 18FEDF00#86FFFFFF7D000000
(1589326706.842778) can1 0CF00400#007D7D000000F07D
(1589326706.843745) can1 10FDA300#FFFF3EFFFFFFFFFF
(1589326706.844720) can1 18FEE000#FFFFFFFF0F140A00
(1589326706.845746) can1 18FE9800#0032FFFFFFFFFFFF
(1589326706.850301) can1 08FE6E0B#FFFEFFFEFFFEFFFE
(1589326706.853739) can1 0CF00400#007D7D000000F07D
(1589326706.854759) can1 18FF4500#FA00FA00FF000000
(1589326706.855718) can1 18FEDF00#86FFFFFF7D000000
(1589326706.856720) can1 1CFE9200#FF8097FFFFFFFFFF
(1589326706.863719) can1 0CF00400#007D7D000000F07D
(1589326706.864719) can1 0CF00300#F10000FFFF0C00FF
(1589326706.865717) can1 18FFA800#FFFE000004100FFB
(1589326706.866780) can1 18FE9700#0032FFFFFFFFFFFF
(1589326706.870300) can1 08FE6E0B#FFFEFFFEFFFEFFFE
(1589326706.870860) can1 18F0010B#C0FF33FFFF500B3F
(1589326706.871451) can1 18FEBF0B#FFFEFFFFFFFFFFFF
(1589326706.874778) can1 0CF00400#007D7D000000F07D
(1589326706.875741) can1 0CF00A00#00000000FFFFFFFF
(1589326706.876700) can1 0CFD9200#F0FFFFFFFFC3FFFF
(1589326706.877699) can1 18FEDF00#86FFFFFF7D000000
(1589326706.882781) can1 1CEBFF00#0150147D603B7D40
(1589326706.883731) can1 0CF00400#007D7D000000F07D
(1589326706.884729) can1 18F00E00#A00FFE71FFFFFFFF
(1589326706.885700) can1 18FF4600#FF000000FCFFFFFF
(1589326706.886805) can1 18FD0700#57FFFFFFFFFFFFFF
(1589326706.887730) can1 18FDD300#5300FFFFFFFFFFFF
(1589326706.890380) can1 08FE6E0B#FFFEFFFEFFFEFFFE
(1589326706.893738) can1 0CF00400#007D7D000000F07D
(1589326706.894760) can1 0CFEF100#FF0000F0FF001FFF
(1589326706.895729) can1 18FEDF00#86FFFFFF7D000000
(1589326706.896701) can1 18FEC100#81F5FB0081F5FB00
(1589326706.903730) can1 0CF00400#007D7D000000F07D
(1589326706.904730) can1 18FD9400#0000FFFFFFFFFFFF
(1589326706.905701) can1 18FD8C00#4C04FFFFFFFFFFFF
(1589326706.906786) can1 18FEF700#FFFFFFFF7F00FFFF
(1589326706.910280) can1 08FE6E0B#FFFEFFFEFFFEFFFE
(1589326706.913718) can1 0CF00400#007D7D000000F07D
(1589326706.914770) can1 0CF00300#F10000FFFF0C00FF
(1589326706.915730) can1 18FCFD00#FFFFFFFF0000FFFF
(1589326706.916700) can1 18FEDF00#86FFFFFF7D000000
(1589326706.922778) can1 0CF00400#007D7D000000F07D
(1589326706.923739) can1 0CF00A00#00000000FFFFFFFF
(1589326706.924699) can1 18F0000F#007D7DF3007D0064
(1589326706.925770) can1 18FF4A00#000000FFFFFFFFFF
(1589326706.930301) can1 08FE6E0B#FFFEFFFEFFFEFFFE
(1589326706.933738) can1 0CF00400#007D7D000000F07D
(1589326706.934789) can1 18F00E00#A00FFE71FFFFFFFF
(1589326706.935747) can1 18FEF200#00000000000000FF
(1589326706.936720) can1 18FEDF00#86FFFFFF7D000000
(1589326706.942760) can1 1CEBFF00#021F7D502D7DB036
(1589326706.943719) can1 0CF00400#007D7D000000F07D
(1589326706.944718) can1 10FDA300#FFFFBBFFFFFFFFFF
(1589326706.945710) can1 18FEE000#FFFFFFFF0F140A00
(1589326706.946766) can1 18FD0900#FFFFFFFF0C78B601
(1589326706.950326) can1 08FE6E0B#FFFEFFFEFFFEFFFE
(1589326706.953739) can1 0CF00400#007D7D000000F07D
(1589326706.954779) can1 18FF4500#FA00FA00FF000000
(1589326706.955701) can1 18FEDF00#86FFFFFF7D000000
(1589326706.956700) can1 1CFE9200#FF8097FFFFFFFFFF
(1589326706.963729) can1 0CF00400#007D7D000000F07D
(1589326706.964699) can1 0CF00300#F10000FFFF0C00FF
(1589326706.965731) can1 18FEEF00#4BFFFF4BFFFFFF00
(1589326706.966780) can1 18FF4800#0000F0FF00000000
(1589326706.970300) can1 08FE6E0B#FFFEFFFEFFFEFFFE
(1589326706.971100) can1 18F0010B#C0FF33FFFF500B3F
(1589326706.971971) can1 18FEBF0B#FFFEFFFFFFFFFFFF
(1589326706.973728) can1 0CF00400#007D7D000000F07D
(1589326706.974819) can1 0CF00A00#00000000FFFFFFFF
(1589326706.975700) can1 18FEDF00#86FFFFFF7D000000
(1589326706.982810) can1 0CF00400#007D7D000000F07D
(1589326706.983699) can1 18F00E00#A00FFE71FFFFFFFF
(1589326706.984740) can1 18FEDB00#FFFF0000FFFFFFFF
(1589326706.990300) can1 08FE6E0B#FFFEFFFEFFFEFFFE
(1589326706.993698) can1 1CECFF0F#20130003FFE1FE00
(1589326706.994778) can1 0CF00400#007D7D000000F07D
(1589326706.995726) can1 0CFEF100#FF0000F0FF001FFF
(1589326706.996740) can1 18FEDF00#86FFFFFF7D000000
(1589326706.997771) can1 18FEFF00#FCFFFFFFFFFFFFFF
(1589326707.002761) can1 1CEBFF00#037DC0440005140A
(1589326707.003760) can1 0CF00400#007D7D000000F07D
(1589326707.004749) can1 18FD9400#0000FFFFFFFFFFFF
(1589326707.005680) can1 18FEF600#DC3A0A64FF0032FF
(1589326707.010351) can1 08FE6E0B#FFFEFFFEFFFEFFFE
(1589326707.013718) can1 0CF00400#007D7D000000F07D
(1589326707.014759) can1 0CF00300#F10000FFFF0C00FF
(1589326707.015750) can1 18FCFD00#FFFFFFFF0000FFFF
(1589326707.016712) can1 18FEDF00#86FFFFFF7D000000
(1589326707.023730) can1 0CF00400#007D7D000000F07D
(1589326707.024739) can1 0CF00A00#00000000FFFFFFFF
(1589326707.025691) can1 18F0000F#007D7DF3007D0064
(1589326707.030451) can1 08FE6E0B#FFFEFFFEFFFEFFFE
(1589326707.033740) can1 0CF00400#007D7D000000F07D
(1589326707.034780) can1 18F00E00#A00FFE71FFFFFFFF
(1589326707.035731) can1 18FEF200#00000000000000FF
(1589326707.036700) can1 18FEDF00#86FFFFFF7D000000
(1589326707.043729) can1 0CF00400#007D7D000000F07D
(1589326707.044739) can1 10FDA300#FFFFFAFFFFFFFFFF
(1589326707.045700) can1 18FEE000#FFFFFFFF0F140A00
(1589326707.050312) can1 08FE6E0B#FFFEFFFEFFFEFFFE
(1589326707.053719) can1 1CEBFF0F#01FF0FC01264E047
(1589326707.054769) can1 0CF00400#007D7D000000F07D
(1589326707.055699) can1 18FF4500#FA00FA00FF000000
(1589326707.056699) can1 18FEDF00#86FFFFFF7D000000
(1589326707.057729) can1 1CFE9200#FF8097FFFFFFFFFF
(1589326707.062741) can1 1CEBFF00#04C0440341007DE1
(1589326707.063730) can1 0CF00400#007D7D000000F07D
(1589326707.064698) can1 0CF00300#F10000FFFF0C00FF
(1589326707.065730) can1 18FFA800#FFFE000004100FFB
(1589326707.070341) can1 08FE6E0B#FFFEFFFEFFFEFFFE
(1589326707.071056) can1 18F0010B#C0FF33FFFF500B3F
(1589326707.071926) can1 18FEBF0B#FFFEFFFFFFFFFFFF
(1589326707.073778) can1 0CF00400#007D7D000000F07D
(1589326707.074780) can1 0CF00A00#00000000FFFFFFFF
(1589326707.075701) can1 18FEDF00#86FFFFFF7D000000
(1589326707.082778) can1 0CF00400#007D7D000000F07D
(1589326707.083700) can1 18F00E00#A00FFE71FFFFFFFF
(1589326707.084739) can1 18FDD000#FFFFFFFF19FFFFFF
(1589326707.090331) can1 08FE6E0B#FFFEFFFEFFFEFFFE
(1589326707.093738) can1 0CF00400#007D7D000000F07D
(1589326707.094771) can1 0CFEF100#FF0000F0FF001FFF
(1589326707.095726) can1 18FEDF00#86FFFFFF7D000000
(1589326707.103728) can1 0CF00400#007D7D000000F07D
(1589326707.104765) can1 18FD9400#0000FFFFFFFFFFFF
(1589326707.105730) can1 18FEA600#0000FFFFFFFFFFFF
(1589326707.110326) can1 08FE6E0B#FFFEFFFEFFFEFFFE
(1589326707.113658) can1 1CEBFF0F#0225602256E02E2C
(1589326707.114781) can1 0CF00400#007D7D000000F07D
(1589326707.115700) can1 0CF00300#F10000FFFF0C00FF
(1589326707.116740) can1 18FCFD00#FFFFFFFF0000FFFF
(1589326707.117700) can1 18FEDF00#86FFFFFF7D000000
(1589326707.121731) can1 1CEBFF00#050000A203FFFF80
(1589326707.122779) can1 0CF00400#007D7D000000F07D
(1589326707.123739) can1 0CF00A00#00000000FFFFFFFF
(1589326707.124730) can1 0CFD9200#F0FFFFFFFFC3FFFF
(1589326707.125691) can1 18F0000F#007D7DF3007D0064
(1589326707.130327) can1 08FE6E0B#FFFEFFFEFFFEFFFE
(1589326707.132738) can1 0CF00400#007D7D000000F07D
(1589326707.133699) can1 18F00E00#A00FFE71FFFFFFFF
(1589326707.134778) can1 18FEF200#00000000000000FF
(1589326707.135731) can1 18FF4600#FF000000FCFFFFFF
(1589326707.136700) can1 18FEDF00#86FFFFFF7D000000
